!Keysight Technologies,E5080A,MY55200853,A.11.70.00
!Date: Tuesday, July 02, 2024 14:48:11
!Correction: S11(Full 2 Port(1,2)) 
!S21(Full 2 Port(1,2)) 
!S12(Full 2 Port(1,2)) 
!S22(Full 2 Port(1,2)) 
!S2P File: Measurements: S11, S21, S12, S22:Log Frequency Sweep
# Hz S  RI   R 50
100000 -0.0050530136 0.0056583988 0.98480326 -0.0029489247 0.98444676 -0.00015075562 -0.021746226 0.011684913
100537.15843873 -0.0040827137 -0.0044925325 1.0045351 -0.010392094 1.0019177 -0.017338447 -0.0031763739 -0.023237713
101077.20226934 0.0027728903 0.00022777215 0.99997413 -0.0031936839 0.99998021 0.0003190664 0.0013448753 0.0022444136
101620.14699096 0.0014212822 -0.00073493971 1.0010706 -0.00022748101 0.99941885 -0.00030333555 0.001354969 -0.00057718385
102166.00818597 0.0024973229 0.00015001502 0.9986527 -0.0024758391 0.99931896 -0.0018947268 0.0023798 -0.0011333893
102714.80152045 0.0017807495 0.00027004222 1.0009226 -0.0015415883 1.0002629 -0.00068511337 0.0036583117 -0.00078350608
103266.54274464 0.0027847446 0.00060588919 0.99848729 -0.0010910014 1.0001365 -0.00030701389 0.0028720577 -0.00019537806
103821.24769338 0.0033442287 0.00019388189 0.99990273 -0.00053181441 0.99936008 -0.00020474959 0.0019357812 -6.6893575e-005
104378.93228656 0.0033347125 0.00070145092 0.99925071 -9.481093e-005 0.99935412 -0.00017052898 0.0024598674 -0.00028238475
104939.61252959 0.0034474372 0.0011912459 0.99956816 -0.0001694926 0.99919534 -0.0007707933 0.0013901587 -0.00067817909
105503.30451386 0.003723789 -0.00053838827 0.99928689 -0.0008187769 0.99930018 -0.00042750759 0.0017590176 0.00077406148
106070.02441719 0.0023901127 -0.00095685309 0.99921709 -0.00076049694 0.9993062 -0.0010680538 0.0018555262 -0.00061905547
106639.78850431 0.0022927877 -0.00079662167 0.99886036 3.4793324e-005 0.99962348 -0.0007644518 0.0025519852 7.2422517e-005
107212.61312731 0.0029013886 0.00068879593 1.0000496 -0.00086356414 0.99976027 -0.00081699848 0.0036393262 -0.0012268516
107788.5147261 0.0021301347 -0.00059949351 0.99928278 -0.00077534089 0.99936485 -0.00040672341 0.0023486177 -0.00012803475
108367.50982893 0.0023551486 -0.00046361063 0.99948061 -0.00092312408 0.99957168 -0.00080873724 0.0028335867 -0.00075922196
108949.61505282 0.0026830696 -0.00075813552 0.9986487 -0.00060019002 0.99929333 -0.00025738482 0.0020529251 0.0011305803
109534.84710404 0.0030535979 -0.00030399981 0.99976385 -0.00096568634 0.99982029 -0.00093224726 0.003216807 -6.8023211e-005
110123.2227786 0.0033140737 -0.00075983512 0.99919111 -0.00024203739 0.99961269 -0.00029519526 0.0021493665 0.0010664545
110714.75896276 0.0030822905 0.00092965149 0.99926543 -0.00050115067 0.99847972 -0.00090015214 0.0010372716 -0.0012092766
111309.47263345 0.0023991314 0.00074236363 0.99924982 -0.0006210499 0.99905419 -0.00077160919 0.0024966612 -0.00083358272
111907.3808588 0.0039635096 -0.00055425917 0.99964088 -0.00071585184 0.99983722 -0.00084069517 0.0017595169 0.00024092084
112508.50079864 0.0031184363 0.00043286764 0.9995051 -0.00061070186 0.99954927 -0.001224007 0.0017964466 -0.00014795098
113112.84970497 0.0034010601 -0.00055154518 0.9993484 -0.0010824514 0.99916828 -0.00088978122 0.001720692 -0.00018086904
113720.44492245 0.00300477 -0.00058488204 0.99914831 -0.0006688016 0.99971449 -0.0010942891 0.0018991252 0.00027607486
114331.30388891 0.0037016505 0.0011446478 0.99940711 -0.00064788177 0.99911833 -0.0010860454 0.0011865568 -0.0012372738
114945.44413585 0.0040714201 -0.00043493512 1.0000145 -0.00048446664 0.99941051 -0.00073315576 0.0021746794 -0.00070413604
115562.88328896 0.0037055542 -0.00023352393 0.99979848 -0.00096024579 0.99906796 -0.00092739298 0.001296971 -0.00019975771
116183.63906859 0.0023192025 -0.00039891567 0.99962908 -0.0010688609 0.99979061 -0.00054502493 0.0033330834 1.1080597e-005
116807.72929027 0.0026598612 0.00028454093 0.99927199 -0.00068608602 0.99959016 -0.00046385449 0.0030647169 0.0007450729
117435.17186524 0.0032055224 -0.00057614618 0.99864179 -0.00024232001 0.99985492 -0.0010853643 0.0013503263 0.0013886995
118065.98480095 0.0032032588 -0.00019219999 0.99900162 -0.00095751678 0.99952376 -0.00080307509 0.0023703882 0.00067619071
118700.18620157 0.0029998552 -0.0011944403 0.99967581 -0.00028818156 0.99903214 -0.00084527489 0.0021377737 0.0011258746
119337.79426854 0.0026539073 -0.00076641707 0.99886686 -0.001560258 0.99935418 -0.00086736964 0.0016343551 0.00050887797
119978.82730105 0.0029948361 -0.00052675651 0.99980104 -0.0010872155 0.99923664 -0.00059282006 0.0026887779 -0.00030175073
120623.30369658 0.0029709516 0.00024285895 1.0003953 -0.00054770225 0.99997604 -0.00039331565 0.0028694784 -8.2899147e-005
121271.24195146 0.0032591417 -0.0004295207 0.99930376 -0.00087897433 0.99984103 -0.00088712381 0.0026194488 -0.00042345791
121922.66066135 0.0044278116 2.790854e-005 0.99950886 -0.00067788729 0.99984854 -0.00025223457 0.00089262001 0.00058454828
122577.57852182 0.0032620139 0.00012629302 0.99845356 -0.00051074225 0.99933547 -0.00062045001 0.0011451684 -0.00022737317
123236.01432884 0.0036979965 -0.00045929052 0.99915671 -0.0006432372 0.99955159 -0.0010603842 0.0015311595 3.6374149e-005
123897.98697936 0.0026632824 -0.00011046108 0.99966705 -0.00083622837 0.99944282 -0.00056711101 0.0026095666 -0.00106521
124563.51547183 0.0034135589 6.8906138e-007 0.99992651 -0.00064934045 0.99946755 -0.00072303676 0.0023565583 0.00029730127
125232.61890677 0.0017128759 0.00030877406 0.99916524 -0.00011892324 0.9994747 -0.00022013646 0.0037829352 0.00055606593
125905.31648726 0.0030538165 -1.7975586e-005 0.99965018 -0.00078524079 0.99975997 -0.00032497456 0.0025438338 0.0011211664
126581.62751958 0.0027992807 -0.00070104725 0.99941862 -0.0016594741 1.0001415 -0.0012675782 0.0026024028 0.00037980013
127261.57141368 0.0025542802 -0.00020028069 0.99949455 -0.00085209816 0.9989804 8.7918825e-006 0.0025947508 0.00030516452
127945.16768379 0.0029404524 0.00015052399 0.99992621 -0.0012187456 0.99900097 -0.00062474015 0.0030145268 0.0008360896
128632.43594895 0.0032632067 0.00060463487 0.9992094 -0.001031311 0.9991712 -0.00049840199 0.0016621636 -0.00037771786
129323.39593359 0.0030838202 0.00085655297 0.99938685 -0.00083787931 0.99947989 -0.00017264461 0.0030066438 0.00051876827
130018.0674681 0.0029804015 0.00035260152 0.99944478 -0.0011971599 0.9994514 -0.0012168554 0.0023121042 -0.00096546317
130716.47048938 0.0033971043 0.0012463505 0.9993372 -0.00065412116 0.99891466 -0.0003438071 0.00091733795 -0.00047760128
131418.62504142 0.0025119118 -0.00098822289 0.99986053 -0.0011529758 0.99944103 -0.00093135907 0.0032696277 0.00081087823
132124.55127589 0.0031211644 0.0013166058 0.99934953 -0.00055213505 0.99926668 -0.00093606015 0.0021029105 -0.00087968615
132834.2694527 0.0029848488 0.00013277004 0.99931943 -0.0012191341 0.99897724 -0.00092272833 0.0019341892 -0.00023306682
133547.79994059 0.0029857773 0.00084483082 0.999695 -0.00088649272 0.99895501 -0.00078906713 0.0016427472 0.00038546353
134265.1632177 0.0018369649 0.00020749382 0.99922699 -0.00083619333 0.99940765 -0.001493808 0.0029846679 0.00086978037
134986.3798722 0.0036572537 -0.00042485032 0.999888 -0.0014771103 0.99966687 -0.0013785589 0.0029388464 8.3141153e-005
135711.47060282 0.0027689852 0.0001040128 0.99852002 -0.00036542612 0.99945414 -0.00073613756 0.0015118727 0.0013276488
136440.45621948 0.0028787523 0.0018287624 0.99958563 -0.00083998125 0.99920583 -0.0011963593 0.0022387817 -0.0011194356
137173.35764391 0.0032083865 0.0011279441 0.9991222 -0.00057147827 0.99928766 -0.0010895442 0.001403142 -7.2157432e-005
137910.19591018 0.0022553629 7.636525e-005 0.99948806 -0.0014170599 0.99967939 -0.0005809337 0.0030705677 0.00062581559
138650.99216538 0.0030163091 -1.0614874e-005 0.99935085 -0.0018105516 0.99995691 -0.0009275442 0.0030767228 -0.00010060847
139395.76767017 0.0029830087 -0.00055651821 0.99931967 -0.0012275899 0.99947304 -0.0011170573 0.00217161 0.00084372691
140144.54379944 0.0029609255 0.0011670975 0.99911749 -0.00066511706 0.99927223 -0.0010624389 0.002286854 -0.00076444144
140897.34204288 0.0034796938 -0.0006650798 0.99939829 -0.0012691615 0.99964768 -0.00062353013 0.0021728843 0.001934064
141654.18400561 0.0027070276 8.1400365e-005 0.99930596 -0.0010536901 0.99955994 -0.0014056556 0.0032742368 6.0642073e-005
142415.09140881 0.0017965272 0.00020004493 0.99877495 -0.0014133418 0.99900198 -0.0017728093 0.0021471044 0.00011605037
143180.08609033 0.0019290337 3.8575861e-005 0.9994936 -0.0017596622 0.99969196 -0.00069319142 0.0030424825 0.0011696395
143949.19000534 0.0038605449 -0.00057001325 0.99942195 -0.0016596571 0.9996047 -0.0012130592 0.0014803712 0.0008673867
144722.42522694 0.0027546892 0.00091396563 0.998492 -0.0017259708 0.9988929 -0.0015538418 0.0012655261 -0.00049762242
145499.81394678 0.0030465354 0.00046752425 0.99965554 -0.0013749317 0.99928635 -0.0015428935 0.0019919367 -0.00018877024
146281.37847573 0.002513817 -0.0001065958 0.99911028 -0.0014223618 0.99957782 -0.0011303974 0.0026276475 0.00092594617
147067.1412445 0.0028024393 0.00022962321 0.999488 -0.0011068679 0.9994359 -0.0018510367 0.0020246799 0.000456126
147857.12480429 0.0030377558 0.00016159937 0.99956965 -0.0014212885 0.99934036 -0.0012070285 0.0017656707 0.0005048475
148651.35182744 0.002789312 5.7823137e-005 0.9996444 -0.00094541669 0.9989475 -0.00099535368 0.00299104 0.00066267268
149449.84510806 0.0019421245 0.00050854648 0.99984241 -0.0012882645 0.99920988 -0.0015011809 0.0027092653 0.0003114859
150252.62756273 0.0042313864 0.00011433742 0.99994463 -0.0017056182 0.99929589 -0.00078964455 0.0016875608 0.0013474247
151059.72223109 0.0027546431 0.0011559355 0.99946785 -0.0019479494 0.99949378 -0.0014236126 0.0027763818 -0.0010901772
151871.15227658 0.0032586372 0.00074744923 0.99929631 -0.0015137217 0.99938554 -0.0015523061 0.0026518947 0.00046816521
152686.94098702 0.0033384629 -0.00055921701 0.99946684 -0.0017502077 0.99953258 -0.0017964974 0.0026670985 0.00046442152
153507.11177537 0.0020804319 0.0013398903 0.99924815 -0.0011670399 0.99980628 -0.0014035591 0.0033656617 0.00023619439
154331.68818032 0.002452441 0.0012065215 0.99957514 -0.0012449966 0.99960428 -0.0012172426 0.0026005788 0.00037471708
155160.69386701 0.0030850091 -6.0833252e-005 0.99924928 -0.0016557996 0.99958664 -0.0020634902 0.0020775332 0.00043501199
155994.15262771 0.0039328486 -0.00010866253 0.99977905 -0.0015257858 0.99966592 -0.0014117018 0.0036470622 0.0012223804
156832.08838247 0.0026010387 0.00086127891 0.99943483 -0.00080529455 0.99951142 -0.00096531998 0.0021663432 0.00079270249
157674.52517985 0.0036326684 0.0015550863 0.99967396 -0.0012848962 0.99966741 -0.0018677934 0.0029580782 -0.0009499038
158521.48719758 0.0039825807 0.0004232215 0.99871922 -0.0020641901 0.99930722 -0.001573701 0.0011837326 0.00049626408
159372.99874326 0.0034619451 0.00065891887 0.99938679 -0.001447774 1.0000598 -0.0010162645 0.0027022311 0.000368498
160229.08425507 0.0026868863 -0.00050731335 0.99965942 -0.002180988 0.99916488 -0.0017728872 0.0022798982 -5.2791574e-006
161089.76830244 0.0029196909 0.00032493466 0.99954844 -0.0016490991 0.99934149 -0.0018200439 0.0022437877 0.00093469612
161955.0755868 0.003413874 0.00032509762 0.99938703 -0.0016898281 0.9998312 -0.0018963523 0.0026600915 0.00068861456
162825.03094227 0.0037214544 0.00019039863 0.99951875 -0.0013743816 0.99916214 -0.0017642827 0.0025565522 -0.00015477592
163699.65933634 0.0028382849 0.0007748846 0.99934167 -0.0017520302 0.99972242 -0.0012095261 0.0026252738 0.00073768839
164578.98587063 0.0038127508 0.0012597138 0.99930078 -0.0010811423 0.99942529 -0.0010018044 0.0010261555 0.00089022733
165463.03578161 0.0030668692 0.00082554249 0.99936849 -0.0017986692 1.0001045 -0.0015873782 0.0021902018 0.0013446801
166351.83444129 0.0026894147 0.0014802474 0.99963814 -0.0009259308 0.99950957 -0.0016912837 0.0030804302 0.00018280713
167245.40735797 0.0038845954 -0.00086696236 1.000008 -0.001284374 0.99978232 -0.0014445306 0.0027419324 0.0023519425
168143.78017698 0.0021727241 0.0011315324 0.99925226 -0.0017982132 0.99928391 -0.0015572869 0.0032185744 0.00065329589
169046.97868139 0.004360104 0.0013289206 0.99929768 -0.0010770384 0.9998861 -0.0018435626 0.0018622876 0.00062808651
169955.0287928 0.0023146074 0.0012110427 0.99941546 -0.0015886393 0.99910843 -0.0018057491 0.0020322565 3.1630912e-005
170867.956572 0.0023679088 1.8721827e-005 0.99930161 -0.0017230273 0.99908292 -0.0016586487 0.0026160479 0.001187781
171785.78821981 0.0024660681 -3.6543079e-005 0.99987328 -0.0021137032 0.99917549 -0.0018666527 0.0024444382 0.00097901316
172708.55007777 0.0022683591 0.0013510024 0.99907666 -0.0018736701 1.0000042 -0.0019686825 0.003024793 3.3466335e-005
173636.26862892 0.0028431823 0.0014171572 0.99922407 -0.0011593793 0.99845779 -0.0018029538 0.0013453084 -0.00013619514
174568.97049855 0.0019978427 0.0011061076 0.9991253 -0.00095518387 0.99958599 -0.0017623083 0.0031449257 0.00046381558
175506.68245498 0.0035701401 -0.00092638261 1.0002922 -0.0023027896 0.9993993 -0.0028145839 0.0021619466 0.00088412664
176449.43141032 0.0022240514 3.5508718e-005 0.99897158 -0.0018665232 0.99897349 -0.0023540887 0.0021402102 0.0012007277
177397.24442123 0.0032384761 0.00062130619 0.99895048 -0.0020900113 0.99975091 -0.0012812125 0.0029583308 0.0012360924
178350.14868971 0.0020650763 0.0016216426 0.99874234 -0.0011761232 0.99886882 -0.0014254254 0.0020062157 0.00083783956
179308.17156388 0.0025547666 0.00085685856 0.99937606 -0.0020469825 0.99974048 -0.0019290198 0.0023871285 -0.00032596357
180271.34053877 0.0024108004 0.0010769877 0.99911869 -0.0014692716 0.99898344 -0.0022874752 0.0029377183 0.00080871867
181239.68325708 0.0028793348 0.0006044422 0.99964696 -0.0018250666 0.99944431 -0.002012562 0.002668502 0.00095675618
182213.22751002 0.0019671367 0.0014421715 0.99928343 -0.001828445 0.99885833 -0.0017706215 0.0023770097 0.0006366552
183192.00123807 0.0020529975 0.00055615552 0.99897563 -0.0019494504 0.99860483 -0.0019934305 0.0026661884 0.0013701435
184176.0325318 0.0022378736 0.00095050555 0.99942368 -0.0022169952 0.99951327 -0.0023172498 0.0030648862 0.0005655167
185165.34963266 0.0026092017 0.0012384505 0.99948561 -0.0021588386 1.0000254 -0.0021312519 0.0034805813 -9.5964453e-005
186159.98093381 0.003385792 -0.0002432824 0.99945986 -0.0020698481 0.99954623 -0.001102732 0.002166932 0.0025605336
187159.95498093 0.0030368122 0.0004701782 0.99962932 -0.00094976637 0.99981439 -0.0024142223 0.0025418592 0.001294791
188165.30047303 0.0023772502 0.0012097096 0.99976099 -0.0012870554 0.99879235 -0.0021050004 0.0025631743 0.00094379421
189176.04626328 0.0025109127 0.0015640263 0.99940366 -0.0020439134 0.99914026 -0.0018537384 0.0025986151 0.00084182102
190192.22135984 0.002566156 0.0020063617 0.99962181 -0.0017371133 0.99973994 -0.0021689897 0.0034495494 0.00019826478
191213.85492668 0.00248252 0.00089214201 0.99947101 -0.0015533183 0.99932855 -0.0022752329 0.002636126 0.00064483361
192240.97628443 0.0027134409 0.00024915501 0.99955219 -0.0017288947 0.99919647 -0.0029680838 0.0025186371 0.00010211319
193273.61491124 0.0027788675 -0.00019512087 0.99995804 -0.0020312266 0.99963653 -0.002408477 0.0027527041 0.0019250886
194311.80044357 0.0029846909 0.000369177 0.99954486 -0.002456231 0.99956048 -0.002148394 0.0020816713 0.00090949651
195355.5626771 0.0021964447 0.00054991781 0.99989438 -0.0024021144 0.99929464 -0.00096668128 0.0034221283 0.0016517926
196404.93156754 0.0044090319 0.0025530215 0.99890858 -0.001490468 0.9989512 -0.0017227987 0.00049892016 0.00082290923
197459.93723154 0.0026746693 0.0013463568 0.99901694 -0.002396286 0.99946421 -0.0030752001 0.0023505636 -0.00032152838
198520.60994748 0.0029015422 0.0011428782 0.99967647 -0.0018293675 0.99899775 -0.0022048235 0.001588667 0.001071893
199586.98015643 0.0018865314 0.00069024554 0.99919605 -0.0020263712 0.99987769 -0.0020741019 0.0033262894 0.0013475581
200659.07846295 0.0026662888 0.00070002046 0.99919313 -0.0021558183 0.99951959 -0.0016937694 0.0023127424 0.0019357648
201736.93563598 0.0032040956 0.0024343759 0.99994826 -0.0017830728 0.99957407 -0.0020378868 0.0033981788 0.0012359362
202820.58260979 0.0024098672 0.0014263383 0.99946594 -0.0021319808 0.99902183 -0.0028748955 0.0029239545 7.336431e-005
203910.05048475 0.0024635447 0.00073261827 0.99953991 -0.0023917549 0.99918896 -0.0025777833 0.0026257525 0.0014644939
205005.37052835 0.0032997224 0.0010934564 0.99938715 -0.002306463 0.99914742 -0.0025147563 0.0020654227 0.00075131992
206106.57417599 0.0032098747 0.0023141601 0.99967098 -0.0022582759 0.99912935 -0.0021382857 0.0027132859 0.00064265251
207213.69303195 0.00303374 0.00051895902 0.99888921 -0.0019386661 1.0001824 -0.0022727142 0.0034409489 0.0017657459
208326.75887027 0.0019444475 0.001061079 0.99833894 -0.0020282564 0.99914742 -0.0023697286 0.0014511044 0.0022795431
209445.80363567 0.0028788543 0.00081431051 0.99831206 -0.0024741667 0.99878263 -0.0020644849 0.001078137 0.0015091434
210570.85944446 0.0044064033 0.0011819695 1.0005864 -0.0027968453 0.99965805 -0.002006876 0.0028987846 0.00070981047
211701.95858547 0.0018482802 0.0017623932 0.99890196 -0.0023429433 0.99957234 -0.0027794982 0.0026181967 0.00054091681
212839.13352097 0.0024151728 0.00084217626 0.99952787 -0.0021303527 0.99903691 -0.0023780852 0.0019569739 0.0019806584
213982.41688759 0.0019531937 0.0012742424 0.99937844 -0.0021032286 0.99977249 -0.0033854868 0.0039513474 0.00042727744
215131.8414973 0.0029913732 0.0013018106 0.99936861 -0.0023845655 0.99898428 -0.002362835 0.0020894648 0.0015163062
216287.44033829 0.0026816719 0.0016120393 0.99912238 -0.0017156736 0.99913621 -0.0020549914 0.0022495347 0.0013661588
217449.24657598 0.0031261488 0.0020078097 0.99926019 -0.0026432802 0.99951261 -0.0026830521 0.0023875488 -0.00033062394
218617.29355391 0.0025934756 0.0010167015 1.0000666 -0.0023961079 0.99969167 -0.0024092395 0.0034600322 0.0021321366
219791.61479476 0.0030408355 0.0006780884 1.0001535 -0.0027128737 1.0000304 -0.0028169623 0.0031154766 0.0015811548
220972.24400124 0.002518638 0.0024255891 0.99949807 -0.0025753721 0.99977249 -0.0016981073 0.0032323482 0.0015603062
222159.21505714 0.0031390819 -0.00013595047 0.99929982 -0.0024416156 0.99945664 -0.0029350363 0.0014801953 0.0022468462
223352.56202824 0.0020160077 0.0020206785 0.99876291 -0.0022490369 0.99965191 -0.0023739836 0.0032058677 0.0010885969
224552.31916329 0.0034641779 0.0014898262 0.99990207 -0.0029075339 0.9997099 -0.0023130819 0.0027581914 0.0012333452
225758.52089503 0.0038708954 0.0024096642 0.99950373 -0.0021903389 0.99904811 -0.002392238 0.0013467192 0.00079389289
226971.20184117 0.0035566359 0.001797031 1.0000135 -0.0025307995 0.99966472 -0.0028116764 0.0027175255 0.0011603988
228190.39680534 0.0030646098 0.0017398751 0.99985743 -0.0019373773 0.99910361 -0.0028162575 0.0026605972 0.0015063358
229416.14077815 0.0030719885 0.00090945611 1.0000584 -0.0030535446 0.99936604 -0.0025388207 0.0030669738 0.0022730378
230648.46893815 0.0028024411 0.0020141862 0.99854934 -0.0027605293 1.0001056 -0.0020406127 0.002727485 0.0022038661
231887.41665285 0.0038801173 0.0032506231 0.99952197 -0.0027605258 0.99959224 -0.0025195598 0.0022587469 0.00036539955
233133.01947975 0.003557317 0.0017109085 0.99953961 -0.0026145454 0.99943042 -0.0028785917 0.0021983741 0.0014562701
234385.31316734 0.0026114678 0.0017551894 0.99939555 -0.0025131728 0.99935293 -0.0024537488 0.0025105458 0.00092563115
235644.33365616 0.0033386759 0.0014807066 0.99904907 -0.0020328034 0.99984062 -0.0026413894 0.0024269198 0.0018998446
236910.11707978 0.0020763127 0.002447285 0.99895519 -0.0022335451 0.99956173 -0.0018452458 0.0029275629 0.0017821437
238182.69976588 0.0024910255 0.0024050702 0.99952108 -0.0029229037 0.99926847 -0.0025047027 0.0031327398 0.00041811235
