!Keysight Technologies,E5080A,MY55200853,A.11.70.00
!Date: Tuesday, July 02, 2024 15:05:27
!Correction: S11(Full 2 Port(1,2)) 
!S21(Full 2 Port(1,2)) 
!S12(Full 2 Port(1,2)) 
!S22(Full 2 Port(1,2)) 
!S2P File: Measurements: S11, S21, S12, S22:Log Frequency Sweep
# Hz S  RI   R 50
100000 -0.11372378 -8.7327204 50.024445 -0.029714219 50.195236 -0.21434614 6144.4243 -19973.76
100537.15843873 0.67841077 -9.697278 50.030899 0.018313915 50.200916 0.14385809 -23777.063 3089.9507
101077.20226934 -0.20585625 -8.9924755 50.025867 -0.018737847 50.188076 -0.10164559 -52417.902 1687.015
101620.14699096 0.69467407 -9.2771502 50.012169 0.021076581 50.117214 0.12402079 -31831.355 -17957.889
102166.00818597 0.098473199 -8.7588453 50.015877 -0.0088274982 50.097141 -0.090456679 -46796.641 -2177.0696
102714.80152045 0.35501066 -9.1196909 50.014385 0.0023570284 50.094334 0.03716626 -21074.758 -8492.5449
103266.54274464 0.38681063 -8.6931143 49.999924 -0.0041719759 50.018566 -0.058411483 -27975.467 7999.9272
103821.24769338 0.27768862 -8.8232946 50.005394 0.0027142041 50.023693 -0.0098404223 -38195.477 -4539.5122
104378.93228656 0.38421586 -8.8160915 50.00457 0.001177454 49.997139 0.017710047 -22311.527 -4149.1855
104939.61252959 0.3175998 -8.6983519 50.008739 -0.0013458761 50.009266 -0.0034628194 -32224.629 6233.1802
105503.30451386 0.38114163 -8.7356119 50.003345 -0.0034050525 50.001778 0.0064289081 -29108.438 -14019.975
106070.02441719 0.3625237 -8.6367121 49.99659 0.0058587678 50.000824 0.0050560199 -36056.293 -19156.219
106639.78850431 0.38403383 -8.6793833 50.000599 -0.0035428128 49.991295 -0.0064052744 -32837.836 -18388.117
107212.61312731 0.39372438 -8.5170851 49.991211 -0.0021046677 49.997746 -0.0046985303 -29053.971 -15424.326
107788.5147261 0.33745369 -8.5700645 49.996372 -0.001824727 50.004791 0.0011032105 -26506.021 -13950.988
108367.50982893 0.33293563 -8.4546328 49.999371 0.0048624999 50.002281 0.0076343664 -25047.377 -16214.478
108949.61505282 0.30734867 -8.4879389 50.001564 0.00075939071 49.990593 -0.0036545016 -33674.074 -14697.73
109534.84710404 0.34387991 -8.3895426 49.997467 0.00021660861 49.992142 0.00035823139 -40836.805 -10450.169
110123.2227786 0.27856085 -8.3480272 50.00201 0.0015821871 49.999996 0.0017683081 -27387.928 -11281.159
110714.75896276 0.31234753 -8.2750635 49.997814 -0.017146172 50.006641 0.0013803514 -52452.941 817.52856
111309.47263345 0.34277138 -8.2341261 50.003746 0.0033787298 50.013855 -0.0042565535 -28515.035 -7259.8462
111907.3808588 0.27285635 -8.1539974 50.00153 0.011083966 49.991848 0.0041089011 -29756.588 1681.7123
112508.50079864 0.30029726 -8.1180763 50.004734 0.0049370499 49.996078 0.0067135133 -31499.434 -910.11365
113112.84970497 0.34133843 -8.0863533 50.003307 0.0050284858 49.999813 0.0040583936 -30257.074 -21369.254
113720.44492245 0.33378083 -8.046423 49.993565 -0.0003628383 50.002949 -0.0046670805 -34673.309 -3270.0615
114331.30388891 0.33398464 -8.0098104 50.002735 -0.0047843494 49.998665 -0.015568352 -33384.754 1666.7103
114945.44413585 0.3806026 -7.9560423 49.999352 4.3162079e-005 50.000118 0.014745642 -23781.039 -10786.644
115562.88328896 0.35319039 -7.9256926 49.999054 -0.0045250687 50.009926 0.0078254817 -26402.143 -41882.508
116183.63906859 0.37855512 -7.9049778 49.993263 -0.0032333836 50.00214 0.0016843401 -30914.512 -20916.604
116807.72929027 0.3173517 -7.8471031 50.000282 0.0035455835 50.002922 -0.00056888827 -30708.99 1838.2079
117435.17186524 0.32400447 -7.8217096 49.993435 8.5063293e-005 49.996178 -0.00078116887 -38759.398 2748.7708
118065.98480095 0.31498957 -7.7530737 49.9967 -0.00043838102 49.990326 -0.0043672952 -37087.59 -8909.498
118700.18620157 0.2858825 -7.7664027 49.997616 0.0069690435 49.990238 -0.0029554574 -56272.527 -15360.667
119337.79426854 0.24359171 -7.6499615 49.999599 -0.0029999621 50.011307 -0.0083354637 -31194.83 -6693.6846
119978.82730105 0.26104665 -7.7101374 49.992958 -0.0067643449 50.006355 -0.0035728726 -35262.488 -29497.719
120623.30369658 0.24463253 -7.5443978 50.004265 0.0043873559 50.003502 -0.0098113874 -32750.014 -2796.2622
121271.24195146 0.23639801 -7.5925736 50.000725 0.0006512354 50.005531 -0.0028085019 -30292.756 -3819.9434
121922.66066135 0.25284681 -7.4622917 49.995117 0.013422572 49.998608 0.0013991764 -24779.455 -2641.0005
122577.57852182 0.22386797 -7.4672093 50.000904 0.00038658077 50.003784 0.0011855349 -53055.379 10066.716
123236.01432884 0.28459266 -7.3589392 49.996616 0.0028571193 50.004498 0.0055961334 -28790.779 -16281.686
123897.98697936 0.2400793 -7.3539238 50.008659 -0.0015980132 49.999374 0.0059709856 -46313.391 -10343.796
124563.51547183 0.32079503 -7.2683539 50.000568 0.0040750294 50.009895 0.0066222236 -39746.668 7448.9497
125232.61890677 0.28862277 -7.2442408 50.002365 0.001719213 50.003654 0.011555497 -67431.828 -16201.055
125905.31648726 0.31864953 -7.2453108 50.005188 -0.0032717192 50.012062 -0.0074583618 -25594.289 -3384.2397
126581.62751958 0.2620278 -7.1566672 49.99836 -0.003716304 50.008408 0.016410206 -25601.656 -12259.122
127261.57141368 0.2893458 -7.1427665 49.997448 0.00055258407 49.991402 0.0099565508 -53835.023 3005.51
127945.16768379 0.29676074 -7.1335702 49.993996 -0.005677368 49.989017 -0.0044898554 -53971.07 6187.6128
128632.43594895 0.30325252 -7.0719914 49.997192 0.0051950337 50.002113 0.0096171368 -36304.035 -7214.604
129323.39593359 0.27619088 -7.0686002 49.995682 0.0029290151 49.989624 0.0041448073 -26461.178 -33906.465
130018.0674681 0.29386589 -6.9786029 50.00193 0.0040078289 50.006496 0.0084882015 -35640.77 -12628.518
130716.47048938 0.27059078 -6.9779444 49.997402 -0.00070659013 49.996811 0.0055767633 -33853.059 -13983.366
131418.62504142 0.29502022 -6.9022603 49.99596 0.0044993395 50.00367 0.00088579417 -27178.205 -10651.192
132124.55127589 0.25322655 -6.8836508 50.00753 0.0073288963 49.996639 0.0043939189 -35608.539 -2488.5276
132834.2694527 0.3268092 -6.8100114 49.995712 0.0022737274 50.003685 -0.0010009997 -38773.301 8536.3623
133547.79994059 0.26442039 -6.7837448 49.999348 -0.0026733426 49.999508 0.0055720108 -32652.096 -4170.5288
134265.1632177 0.33403924 -6.7226453 50.004387 -0.00084458553 50.001717 -0.00016410464 -47898.828 9256.873
134986.3798722 0.2664043 -6.6791372 50.000919 0.0014628221 50.002903 0.0043264939 -47772.051 -16769.771
135711.47060282 0.33683145 -6.7105045 50.002457 0.0013303814 50.002918 -0.0082318429 -50516.777 9176.9834
136440.45621948 0.29969347 -6.619832 50.000427 -0.0032858264 50.00462 0.0045442251 -34074.777 17818.766
137173.35764391 0.31242675 -6.6436086 49.99773 -0.0081464322 49.996983 -0.0064952848 -66106.945 19102.859
137910.19591018 0.30008301 -6.543767 50.004421 -0.0034130118 50.007854 0.0012298538 -45707.422 7033.751
138650.99216538 0.30984628 -6.5742073 49.993267 0.0011790267 49.994938 -0.0017850137 -32830.602 -15056.514
139395.76767017 0.29040325 -6.4793363 50.006214 -0.00066709897 50.005947 -0.0020626832 -22626.418 -18595.129
140144.54379944 0.290113 -6.4945083 50.000248 -0.0046843584 49.988373 0.0076928106 -26485.107 6243.9595
140897.34204288 0.28603908 -6.4110103 49.99625 -0.004471343 50.008636 -0.013682543 -31095.361 -131.8381
141654.18400561 0.31410784 -6.3772988 50.009491 0.0047236914 49.998802 0.014251351 -20395.178 -7066.3247
142415.09140881 0.27242461 -6.3626637 49.993809 0.00023328744 49.996338 0.011969855 -61194.086 -16915.906
143180.08609033 0.29956239 -6.3391981 50.000786 -0.0021803561 49.999912 -0.013601061 -29403.035 -4545.7144
143949.19000534 0.26097149 -6.2740345 49.993835 0.0034165503 50.002567 0.012416271 -20204.363 -5962.627
144722.42522694 0.30357072 -6.2682014 49.999744 -0.0035076004 49.997326 -0.0083005214 -29688.068 -3487.2668
145499.81394678 0.26656178 -6.1930413 50.00346 -0.00075922819 49.999073 0.0082237516 -33502.586 -7620.6147
146281.37847573 0.28805524 -6.227437 50.001411 0.00091020885 50.001747 0.0020202119 -47382.828 10456.027
147067.1412445 0.27752328 -6.1035438 50.005341 8.1147933e-005 49.994404 -0.0062354896 -28687.809 -10306.783
147857.12480429 0.26928616 -6.1474571 49.991756 -0.004734884 49.999504 -0.0030473904 -24515.145 -8126.209
148651.35182744 0.31913841 -6.0511823 49.993038 0.0010725154 49.991299 -0.0016031038 -52316.262 -29475.516
149449.84510806 0.25611791 -6.0177336 49.99934 -0.0015896274 49.997005 -0.011770925 -33403.082 -10215.181
150252.62756273 0.30588377 -6.0093722 49.993202 -0.0051622773 49.984962 0.0070524155 -25407.104 -7177.4048
151059.72223109 0.29018033 -5.9646044 50.00341 -0.0028438896 49.99427 -0.010856331 -27386.432 -17980.061
151871.15227658 0.33208632 -5.9453826 50.001945 -0.00013735413 50.004494 -0.010630065 -41095.324 10607.094
152686.94098702 0.29782209 -5.8994198 49.999866 -0.0019565087 50.006363 -0.0002131346 -24720.213 -20797.293
153507.11177537 0.32206032 -5.8718157 49.99205 0.0036157023 49.997505 -0.0030910466 -41191.117 -1217.4998
154331.68818032 0.31346422 -5.8228092 49.998253 -0.0054139327 49.996315 -0.0026861317 -38216.953 -9650.4766
155160.69386701 0.29291025 -5.8246207 50.001266 0.0025291541 50.001831 0.0060971049 -89943.016 -31521.121
155994.15262771 0.30495539 -5.7570872 49.998959 0.005592694 49.989136 0.0070862318 -35232.426 -8452.7461
156832.08838247 0.29033521 -5.740757 50.002991 -0.0043549193 50.012035 0.0088950191 -29000.783 9696.209
157674.52517985 0.30426294 -5.7056122 49.997391 -0.0057777194 49.998909 -0.0072714901 -82488.273 9509.5303
158521.48719758 0.30594742 -5.6824918 50.000866 0.00028460909 49.992821 0.00013478097 -34529.297 -19956.934
159372.99874326 0.29412234 -5.640409 49.997101 0.005809146 50.001747 -0.0021568551 -28897.33 -19166.129
160229.08425507 0.30376521 -5.6018991 50.0037 -0.0066631637 49.998421 -0.0021028507 -36308.879 -2971.2739
161089.76830244 0.29656276 -5.5637822 50.004398 0.0050642332 50.005966 -0.0019689724 -72579.453 -38454.48
161955.0755868 0.30498844 -5.5642715 49.995426 0.0013809871 50.004387 -0.0050276536 -34274.352 -18909.844
162825.03094227 0.3213706 -5.5224862 49.996094 -0.0015249357 49.992832 0.0061369198 -22768.021 -15214.121
163699.65933634 0.30711293 -5.5011749 50.000824 -0.00046156047 50.001419 0.0046332818 -21885.334 -10986.067
164578.98587063 0.31014359 -5.4790111 50.011459 -0.000896702 50.001743 0.0012418083 -46566.613 555.76636
165463.03578161 0.27276236 -5.425931 50.008217 0.00035615204 49.997326 0.00053386559 -42553.426 -8408.3779
166351.83444129 0.30240834 -5.4030948 50.008869 -0.00035047327 49.992477 -0.0027290292 -23980.953 -4614.043
167245.40735797 0.27259898 -5.3689127 49.99469 -0.0045543499 49.986465 -0.0022642598 -21215.836 -5805.1719
168143.78017698 0.27321887 -5.3408661 49.999752 0.0019257353 50.007973 -0.0011539743 -40461.039 -28221.945
169046.97868139 0.28836611 -5.3035765 50.004814 -0.0013154895 50.002922 0.0039637838 -28412.184 -5909.8457
169955.0287928 0.29466483 -5.2744379 49.999519 0.0079171443 49.996029 0.00093793531 -53611.371 -23519.24
170867.956572 0.29133716 -5.251822 49.997227 -0.0004000951 49.993797 0.0067939973 -26110.418 -2833.4656
171785.78821981 0.30519029 -5.2101998 50.003807 -0.0065129101 50.002819 -0.011657307 -41025.047 -3596.0798
172708.55007777 0.30294937 -5.1717353 49.99828 0.0014172505 50.002884 -0.0041126763 -43699.027 -14110.245
173636.26862892 0.30233526 -5.1756701 49.997662 -0.0021550057 49.996349 -0.00010564776 -29263.004 5133.9902
174568.97049855 0.28444391 -5.1129045 50.004894 -0.0024062928 50.003716 0.0057332399 -49158.813 -10826.115
175506.68245498 0.27718884 -5.0974917 49.996002 0.0013143275 50.00761 -0.0059908545 -24525.391 -21092.875
176449.43141032 0.27377093 -5.0594811 49.999126 0.00052591297 49.992828 -0.0041547474 -30549.557 -5696.2358
177397.24442123 0.28123209 -5.0284767 49.998425 -0.0026527441 50.000767 -0.0028273773 -27817.693 7022.2969
178350.14868971 0.28443336 -5.0028663 50.000355 0.0022875867 50.000744 -0.00072917197 -55238.258 2725.7068
179308.17156388 0.27467704 -4.9695354 50.000427 -0.00030094816 50.000061 -0.0044566076 -36071.957 -12980.764
180271.34053877 0.29316735 -4.9558411 49.998566 0.0018382816 49.993656 -0.0019545376 -31500.16 -10632.185
181239.68325708 0.28639379 -4.9073362 49.994392 0.0063568284 50.002239 -0.0049097268 -27019.477 -12776.404
182213.22751002 0.27541509 -4.8798652 49.996929 0.0043178084 49.999844 -0.0053258971 -40432.348 6230.2446
183192.00123807 0.2642583 -4.8566642 50.003639 0.0026848428 49.99712 -0.007025328 -25771.777 -20418.525
184176.0325318 0.27122256 -4.8191528 49.999546 -0.00096521166 49.999813 0.003867028 -29349.471 -26993.766
185165.34963266 0.28358185 -4.8041143 50.003902 -0.0018074855 49.999233 0.0029649984 -28582.25 -9926.6758
186159.98093381 0.27909437 -4.786777 50.005638 0.0069526546 49.999046 -0.0005296272 -43326.723 -18246.389
187159.95498093 0.27524951 -4.7566981 49.999569 -0.00032834036 50.006592 -0.0050612851 -48721.332 -3777.7861
188165.30047303 0.28664789 -4.7280993 49.997948 0.0044318228 50.002415 -0.00044950013 -40564.668 -9825.4814
189176.04626328 0.2826269 -4.698997 49.994579 0.0034418337 49.996937 0.0025641385 -34072.703 14614.965
190192.22135984 0.28737804 -4.6614699 50.001308 0.0032548371 49.997623 -0.00076493836 -32724.773 1555.3649
191213.85492668 0.2959142 -4.6372437 49.997784 0.00011977038 49.997627 -0.00077596714 -29618.008 -14747.264
192240.97628443 0.27959886 -4.6159005 50.002365 0.012524583 50.000816 0.0039777104 -20860.434 -13627.44
193273.61491124 0.27931133 -4.5779366 49.996723 -0.0014005424 50.004005 -0.0088266749 -26345.605 -15798.644
194311.80044357 0.27797112 -4.5588088 50.000114 0.0035680949 50.001461 -0.0030764248 -23222.211 -13070.836
195355.5626771 0.28430018 -4.5270276 49.998821 -0.0039184843 49.995922 0.00056659663 -53318.43 -4818.3892
196404.93156754 0.28027716 -4.5104532 50.008026 -0.00036099969 50.000084 -0.0023088111 -35190.637 -6969.7837
197459.93723154 0.29444596 -4.4835691 50.004257 -0.008192881 50.005714 0.0013844252 -20529.082 -24350.131
198520.60994748 0.27292752 -4.4599485 50.005997 0.0070353481 50.003544 -0.0030127298 -34819.105 5066.3174
199586.98015643 0.27310315 -4.4214177 49.998497 -0.0017770121 50.003723 -0.0046713706 -42831.293 1148.5011
200659.07846295 0.28426334 -4.3942699 49.994526 -0.0022852581 50.002476 -0.00086608483 -22669.283 10192.221
201736.93563598 0.28270161 -4.3686595 49.995152 -0.0033056797 49.99836 0.0033581569 -25184.973 3911.7964
202820.58260979 0.29383877 -4.348834 49.998928 -0.0094843823 49.999542 -0.002338025 -19826.057 -19692.314
203910.05048475 0.2814686 -4.3032126 50.000061 -0.0048779948 49.998104 0.0027849791 -50701.383 -25364.715
205005.37052835 0.26391259 -4.3035793 49.99287 0.0083956076 49.997559 -0.0011206641 -34659.125 -34395.801
206106.57417599 0.28035247 -4.2625923 50.000721 0.00096555369 49.995644 0.00036073267 -34415.141 -7596.5269
207213.69303195 0.27800974 -4.2347641 49.999809 -0.0016902694 49.997326 0.00044116637 -30479.736 -10482.152
208326.75887027 0.27820933 -4.2074747 49.99794 -0.0032065774 50.003105 0.0022529596 -29421.002 -14351.574
209445.80363567 0.27765551 -4.1985092 49.999817 0.003776012 49.999908 0.0012000657 -140269.77 79543.188
210570.85944446 0.27625871 -4.162456 50.004963 0.013519606 49.999905 0.0011999897 -20430.643 -12308.137
211701.95858547 0.27666974 -4.1412311 50.000004 0.0016752231 49.99754 -0.0010297482 -34009.32 -4233.0015
212839.13352097 0.27551845 -4.1267996 49.99501 -0.0016751424 49.999615 -0.00045071301 -63725.359 -37771.641
213982.41688759 0.28706732 -4.0922608 49.996967 -0.0021556576 49.999489 -0.00029737034 -31369.07 -6482.4941
215131.8414973 0.27298337 -4.0669618 49.999386 0.0059226784 50.003815 -0.0018444608 -39161.336 -24155.047
216287.44033829 0.28038549 -4.0533543 50.001747 0.0019379277 49.99765 -7.29354e-005 -55716.914 -31348.449
217449.24657598 0.29185212 -4.0236111 50.004475 -0.0012079544 49.997669 -8.8119188e-005 -21183.328 -13669.741
218617.29355391 0.2676838 -3.9725358 49.998859 0.0050085052 50.001656 -0.0019869029 -35466.707 -1620.0453
219791.61479476 0.26810858 -3.9692173 49.997799 0.0026548938 50.005173 0.00028847245 -28131.549 -12140.73
220972.24400124 0.26992109 -3.9438345 50.003204 -0.00033799975 49.997177 -0.0019752949 -38640.063 -8925.1855
222159.21505714 0.25717607 -3.9361055 49.999279 0.00088435004 50.004807 -0.00082718546 -32798.066 2665.4583
223352.56202824 0.2812984 -3.9124405 49.994232 4.0229668e-005 50.000633 -0.0040614689 -30633.676 -3597.7664
224552.31916329 0.27864212 -3.8764439 50.002647 0.0017577971 49.99897 0.00046876137 -28113.072 -8905.7695
225758.52089503 0.26409116 -3.8500786 49.999416 0.0040146303 49.995937 -0.00045622964 -24008.775 -6421.5967
226971.20184117 0.27773416 -3.82037 50.004726 -0.0002224261 50.000629 0.0079201609 -31295.594 -5592.3462
228190.39680534 0.26540077 -3.8002956 50.001469 0.002014969 49.998226 -0.0017725166 -64893.52 -30920.934
229416.14077815 0.2746267 -3.7727516 49.997612 -0.0049926094 49.996815 0.0024533016 -18005.201 -7301.5942
230648.46893815 0.27736351 -3.7539523 50.005558 0.00071086996 50.004555 -0.00035925116 -38225.141 -5966.7119
231887.41665285 0.28114957 -3.7380097 50.003296 -0.0002078907 49.997894 0.00068810862 -28196.816 4866.4692
233133.01947975 0.27653128 -3.7162976 49.999317 0.0008521367 49.998829 -0.0069407467 -29848.996 10340.873
234385.31316734 0.2728425 -3.6953058 49.992004 -0.0022645947 50.004662 0.0051487121 -41988.418 -23359.559
235644.33365616 0.2850689 -3.6726835 49.997524 0.0048128976 50.000191 -0.00051139825 -31547.768 -14943.932
236910.11707978 0.2587705 -3.64691 49.999916 0.0048377151 50.00563 -0.0025212837 -32168.09 -3839.6787
238182.69976588 0.27340063 -3.6163087 50.003952 0.0077131502 50.003376 0.0029161307 -35587.59 -2602.1865
239462.11823726 0.27523345 -3.5998938 49.99892 -0.0030191159 49.997856 0.011981509 -26868.205 -14301.151
240748.40921293 0.28689671 -3.5702412 49.996174 0.0051356526 50.004555 0.00017448481 -25060.584 -13505.683
242041.60960912 0.27220115 -3.5430293 50.005718 0.0029840306 50.000519 0.0053104013 -35098.902 -7995.7891
243341.75654037 0.27330238 -3.5294979 50.000252 0.0043650996 50.004757 -0.0032267554 -56823.844 -8547.4541
244648.88732058 0.28518671 -3.5134211 49.997818 0.0072747613 50.00452 -0.0042133783 -37580.184 -12119.114
245963.03946408 0.26925975 -3.4943206 49.995445 0.0026552468 49.998985 -0.010405674 -21116.658 -2366.8445
247284.25068671 0.26820061 -3.4623251 49.999229 0.0028565349 50.00317 -0.0029770774 -29481.457 -5492.3354
248612.55890692 0.27757198 -3.434094 49.998344 0.0043718433 49.995869 -0.0013332819 -33377.77 -4845.4644
249948.00224683 0.27243575 -3.4151103 50.001972 -0.001230959 49.998802 0.0020093501 -37822.762 -5668.2944
251290.61903333 0.2715812 -3.3981895 50.00692 0.0045976304 50.006733 -0.003422362 -19438.525 -18642.764
252640.4477992 0.26108879 -3.3690424 50.003201 0.0064722877 50.002426 0.0016598667 -39698.777 -18757.424
253997.5272842 0.27855963 -3.3616171 50.0019 -0.0075682998 49.998768 -0.010089732 -38558.098 -2755.9695
255361.89643616 0.27509421 -3.323571 49.994953 -0.0051943115 49.997356 -0.0019090937 -39804.676 -12396.542
256733.59441217 0.25654107 -3.317975 50.001171 -0.002992267 49.995331 -0.0046105674 -36649.227 -7846.4707
258112.6605796 0.27133027 -3.2931533 50.001076 -0.00095586968 49.997849 -0.00079298415 -33515.203 -17946.295
259499.13451733 0.27643183 -3.2750301 50.000748 -0.00067981676 49.991116 0.001999394 -41599.863 -1555.4966
260893.05601682 0.27396044 -3.2426257 49.992535 0.0053196917 49.997135 -0.00030936784 -35957.516 -12582.041
262294.46508327 0.26133674 -3.2446105 50.004162 -0.0060159066 49.99892 0.0039018681 -32696.691 1099.7396
263703.40193678 0.25967503 -3.2178323 49.995834 0.0028057438 50.003895 0.0011094228 -35223.66 1119.1219
265119.9070135 0.29202008 -3.1837101 50.002518 0.0016145163 50.00396 0.0036893371 -22958.643 -11113.175
266544.02096677 0.27168986 -3.1572716 50.004505 0.0076951748 49.999577 -0.00091169856 -45317.316 -7663.1187
