!Keysight Technologies,E5080A,MY55200853,A.11.70.00
!Date: Tuesday, July 02, 2024 15:11:31
!Correction: S11(Full 2 Port(1,2)) 
!S21(Full 2 Port(1,2)) 
!S12(Full 2 Port(1,2)) 
!S22(Full 2 Port(1,2)) 
!S2P File: Measurements: S11, S21, S12, S22:Log Frequency Sweep
# Hz S  RI   R 50
100000 -0.18261744 -9.1987038 50.025845 -0.020892525 50.157417 -0.23458725 -21158.561 217741.98
100537.15843873 0.68529534 -10.181458 50.033371 0.014600671 50.230785 0.09807492 -18093.504 -29182.135
101077.20226934 -0.27085122 -9.5072184 50.032001 -0.010906802 50.185543 -0.096034735 -59400.781 -16217.149
101620.14699096 0.6954183 -9.6954422 50.021126 0.018509906 50.120525 0.12449182 -35109.367 -14101.556
102166.00818597 0.045355823 -9.207593 50.019039 -0.011164259 50.106815 -0.08783979 -22726.188 -20321.844
102714.80152045 0.33222637 -9.5953302 50.010891 0.0092820497 50.087692 0.046330631 -30844.301 -4145.0776
103266.54274464 0.35895228 -9.1532936 50.002647 -0.0059122485 50.019806 -0.056861915 -29311.314 -3546.0093
103821.24769338 0.23494703 -9.2781324 50.002018 0.00063425762 50.022427 -0.0073215514 -35146.434 -13916.883
104378.93228656 0.35005811 -9.2741032 50.000301 0.0066248211 50.000256 0.013355138 -28559.055 -8045.147
104939.61252959 0.28525159 -9.1486139 50.003807 0.0010919885 50.002426 -0.0059290542 -45432.961 -14298.112
105503.30451386 0.35707527 -9.1805372 50.001015 -0.0047818739 50.001629 -0.0014102574 -29024.188 -5391.7148
106070.02441719 0.31918457 -9.1006708 50.004753 -0.0069574686 49.998737 0.0089939907 -26160.23 -18411.6
106639.78850431 0.33216837 -9.1488657 49.997669 -0.0024733911 49.995693 -0.014094791 -31611.576 -3242.2048
107212.61312731 0.35543492 -8.9802818 50.002483 -0.0023293011 50.000221 -0.0054546534 -40642.895 -644.75531
107788.5147261 0.30888551 -9.0118103 50.0037 0.0054142079 50.001846 -0.00056084763 -39397.027 -20244.785
108367.50982893 0.307693 -8.896615 50.001877 0.0048552542 50.00148 0.012307895 -50060.695 -23115.193
108949.61505282 0.23310868 -8.9175816 50.002392 -0.0092773158 49.984104 -0.00058498292 -32773.094 -8635.7852
109534.84710404 0.30003729 -8.8404102 50.005249 -0.0044960803 50.001984 -0.0039272914 -46090.387 12033.617
110123.2227786 0.24583136 -8.7885828 50.001106 -0.0025495568 50.004623 0.004213871 -41266.004 -7725.4937
110714.75896276 0.28648353 -8.7218447 50.005104 0.0022438511 50.003437 -0.002806196 -39244.246 -37594.555
111309.47263345 0.30695987 -8.6741877 49.997578 -0.00089213246 50.011028 -0.011407232 -31116.428 -7895.1665
111907.3808588 0.25646409 -8.6080246 49.994194 0.00065113051 49.990654 0.0081274528 -38127.805 -21352.441
112508.50079864 0.27773288 -8.5421572 50.001263 -0.0022968552 49.994873 0.0062574022 -43434.145 -673.20685
113112.84970497 0.30596256 -8.5235891 50.007984 -0.0051459367 50.001625 -0.0041964995 -39252.469 -17024.377
113720.44492245 0.2961531 -8.4731045 50.001881 0.00077432184 50.004066 -0.0056561655 -32486.504 -7116.3022
114331.30388891 0.3074351 -8.4507875 50.000595 0.00069227145 50.000828 -0.0111929 -54458.129 1749.8717
114945.44413585 0.35261202 -8.3802967 50.005047 0.0047281049 50.002251 0.018178813 -29292.998 -11613.383
115562.88328896 0.32031292 -8.3591347 50.002121 0.0083445245 50.005466 0.0021841212 -53473.746 -35608.539
116183.63906859 0.31689256 -8.3382587 50.001038 -0.0035660053 50.003387 0.0018404559 -40433.375 -18513.119
116807.72929027 0.28216276 -8.2686863 49.999947 -0.0014781014 50.000813 -0.0012467167 -42066.16 -1493.4799
117435.17186524 0.28834218 -8.2636042 50.000446 0.0014178158 49.999531 -0.0033152397 -40116.313 -1726.6245
118065.98480095 0.27569389 -8.1663218 49.990776 -0.010553732 49.988079 0.0070549692 -42682.168 6549.6162
118700.18620157 0.25569472 -8.1623716 49.995808 -0.00060162169 49.990707 0.0012118593 -58852.777 -5951.7974
119337.79426854 0.2061713 -8.0891066 49.997879 -0.0018223099 50.008366 -0.012769566 -41832.344 -18741.783
119978.82730105 0.22345255 -8.1254091 50.00246 0.0031330981 50.007778 -0.0008808272 -46921.973 -20742.322
120623.30369658 0.21156049 -7.9597893 49.996174 -0.011015579 49.999146 -0.0078091351 -30824.547 -4351.3076
121271.24195146 0.19081259 -8.0109921 49.995922 0.00097431795 50.006252 -0.0076341433 -35544.055 -5093.3174
121922.66066135 0.22874628 -7.8773823 50.002033 -0.00082890131 50.000011 -0.0027943039 -25122.273 -6238.5869
122577.57852182 0.19599395 -7.8982143 50.001949 0.0024334895 49.994019 -0.00079697807 -46064.934 -3917.5554
123236.01432884 0.2341603 -7.7873216 49.999313 0.00014603359 49.999672 -0.0006235193 -38088.316 -11367.563
123897.98697936 0.22538687 -7.7805185 49.999641 0.0064785024 49.996872 0.0059437915 -52533.117 -10332.994
124563.51547183 0.29390284 -7.7011509 50.009464 -0.0016615704 50.009171 -0.0048083281 -27111.506 3172.7
125232.61890677 0.21703427 -7.6653576 50.0047 -0.0062934812 50.002148 0.011944124 -35525.773 -14994.427
125905.31648726 0.29428026 -7.6397514 50.003391 -0.0054557552 50.010918 -0.0055118627 -22266.773 -12617.126
126581.62751958 0.23633543 -7.5756664 50.007324 0.00024500972 50.008755 0.015629875 -33701.285 -11628.248
127261.57141368 0.24727353 -7.5498366 49.997402 0.0045995163 49.989662 0.010910873 -54037.59 -41630.891
127945.16768379 0.26289141 -7.5387125 50.003067 0.0027749117 49.986893 -0.0045595444 -43591.648 5398.8506
128632.43594895 0.27882856 -7.4862647 50.005398 0.0056283851 50.003788 0.013538867 -30129.332 -9383.3887
129323.39593359 0.25101346 -7.4807897 49.991817 0.0035037687 49.989643 0.00034399977 -29477.279 -18324.768
130018.0674681 0.27208647 -7.3912344 50.000732 -0.0049273241 50.011444 0.0041262433 -38333.203 -4441.2139
130716.47048938 0.22062002 -7.3959098 49.998409 0.0047573727 49.989033 0.0062383306 -27717.42 -15050.778
131418.62504142 0.27031216 -7.3075938 50.002632 0.0069144205 50.003826 0.0025496208 -30311.357 -7811.0308
132124.55127589 0.2321247 -7.2764473 50.009525 -0.0069714296 49.997375 0.0046326951 -36206.762 -3139.959
132834.2694527 0.29275718 -7.2301793 49.999626 0.001473112 50.008057 -0.0033234116 -59820.129 7711.2529
133547.79994059 0.22478008 -7.1921635 49.996956 0.0011214121 49.998417 0.0083043538 -33353.18 -15552.149
134265.1632177 0.28770217 -7.1193361 49.997314 0.002136762 50.009949 -0.006722121 -64487.871 67959.953
134986.3798722 0.24451581 -7.081264 49.995354 0.0061785979 50.002628 0.0066698887 -41214.875 -3033.616
135711.47060282 0.28275946 -7.1223459 50.004375 -0.0044809892 50.003803 -0.0061251707 -65683.477 1003.93
136440.45621948 0.2501854 -7.0082479 49.993984 0.0039739446 50.003929 0.0039396156 -40260.941 5809.2378
137173.35764391 0.28745863 -7.044425 49.991802 -0.0061417669 49.995899 -0.0028710435 -75440.844 24550.84
137910.19591018 0.25542125 -6.9433165 49.998318 -0.00055023324 50.012299 0.0017871077 -60548.457 -2230.4646
138650.99216538 0.27877721 -6.9744825 49.995502 -0.0045080935 49.994667 -0.0059848819 -25540.764 -9155.8096
139395.76767017 0.26531455 -6.8814559 50.003918 0.0011636297 50.011211 0.0064410619 -33020.879 -15777.396
140144.54379944 0.25464189 -6.8877788 50.002991 -0.0038854161 49.98695 0.0049462644 -31309.883 -3860.1729
140897.34204288 0.25908139 -6.8291903 49.995113 -0.0023872002 50.012039 -0.0099065471 -36308.09 -9802.4434
141654.18400561 0.27712262 -6.7804637 50.000004 0.00081431668 49.990898 0.011978696 -25909.863 -10360.582
142415.09140881 0.25131664 -6.7611814 49.996662 -0.00039016927 49.995052 0.012005419 -35611.113 -4428.6953
143180.08609033 0.25640157 -6.7449131 49.994709 0.0039750026 49.994293 -0.01481813 -28464.857 570.77216
143949.19000534 0.21536194 -6.6870627 50.005039 -0.0014027887 50.004589 0.0092215901 -22932.133 -16710.494
144722.42522694 0.2724115 -6.6802931 49.997467 -0.0023045486 49.991081 -0.0066892356 -30599.877 -26808.215
145499.81394678 0.23171686 -6.5745897 50.003483 -0.00066894857 50.004723 0.0048700366 -34601.82 -8305.9248
146281.37847573 0.24698281 -6.6289778 50.000221 0.0011673907 49.996716 -0.0026627539 -37371.891 -15508.133
147067.1412445 0.23569946 -6.5011363 50.002132 0.001613491 50.002144 0.002198969 -37800.09 -10056.252
147857.12480429 0.22947051 -6.5450983 50.001057 0.0021647464 49.998226 -0.0038995172 -31639.559 -2786.3259
148651.35182744 0.28188583 -6.4457593 50.000423 -5.209033e-005 49.995537 0.0057819784 -49220.359 -28549.246
149449.84510806 0.21644865 -6.4327893 50.004524 -0.0057351496 50.004845 -0.010202722 -56685.789 -6550.0752
150252.62756273 0.26359016 -6.412621 49.997498 0.0025580933 49.989979 0.0032006421 -30581.816 -11776.074
151059.72223109 0.24917276 -6.334578 49.998936 -0.0034349363 49.996971 -0.016763182 -50217.93 7399.936
151871.15227658 0.28166467 -6.3227172 50.007675 0.0014039051 50.007874 -0.01471519 -48468.781 -23236.068
152686.94098702 0.26591173 -6.2678952 50.001591 -0.0021009315 50.005566 -0.0010186748 -18987.268 -22737.914
153507.11177537 0.27761596 -6.2446098 50.000244 0.0019593171 49.999676 -0.007593039 -25570.631 -12100.067
154331.68818032 0.26915634 -6.2148085 49.995647 -0.0062851212 49.994907 0.0011332339 -49899.445 -29605.869
155160.69386701 0.25204766 -6.2087679 49.998997 -0.0044556707 50.001492 0.0051997034 -41411.121 -29979.678
155994.15262771 0.26370507 -6.1597271 49.993866 0.009128361 49.997845 0.0090926848 -24478.174 -4437.3384
156832.08838247 0.25961277 -6.1327209 50.001244 0.00032534616 50.008327 0.0074077877 -39518.598 -11946.798
157674.52517985 0.25924745 -6.1014776 49.999962 -0.0073149069 50.002869 -0.011907905 -64850.172 13731.93
158521.48719758 0.26859882 -6.072979 50.001572 -0.0022490325 49.995411 -0.00036507013 -33305.488 -3236.8801
159372.99874326 0.25745428 -6.0274711 49.996464 -0.0013645671 49.996845 0.0021517153 -31443.771 -12565.433
160229.08425507 0.27773145 -5.9931722 50.004482 -0.0011580543 50.002758 0.00044367753 -28398.883 -14447.116
161089.76830244 0.2590704 -5.9567137 49.996559 -0.0014370113 50.005859 -0.00093029143 -45116.168 -6601.1377
161955.0755868 0.2722652 -5.9544721 49.996819 -0.0091185765 50.010395 -0.0075501357 -31265.248 -26184.617
162825.03094227 0.26059356 -5.9106917 50.002708 0.0062071122 49.989574 0.0075097121 -25078.574 -17354.508
163699.65933634 0.26769412 -5.8945827 50.002518 -0.0033951574 49.996597 0.0080760196 -35892.016 -32795.426
164578.98587063 0.27394331 -5.8643284 50.004253 0.0063927169 50.00169 0.0034415999 -46114.688 16909.68
165463.03578161 0.24636598 -5.8163018 50.011097 0.0013652469 49.999107 -0.00036917292 -23640.549 -24904.277
166351.83444129 0.25607443 -5.7817416 50.005539 -0.0054551028 49.993221 -0.0039085173 -31378.832 -1.3670379
167245.40735797 0.23272994 -5.7453723 50.003635 0.0023785094 49.991459 -0.0023469853 -32183.92 -10116.723
168143.78017698 0.23603739 -5.7221336 50.005909 -0.00024888752 50.008999 -0.00048216805 -53250.723 26084.127
169046.97868139 0.25223857 -5.68924 50.002277 -0.0075648804 50.00145 -0.0041662529 -22541.645 -8881.9102
169955.0287928 0.25152004 -5.6728144 49.993462 -0.0066065169 50.00246 -0.004300199 -25906.256 -39729.121
170867.956572 0.2686983 -5.6212921 50.00349 0.0036604377 49.992401 0.003161862 -24898.424 -14218.568
171785.78821981 0.25874087 -5.5938449 50.007046 0.0037725314 49.994526 -0.010829999 -42609.957 1097.3425
172708.55007777 0.25635028 -5.5571342 50.000748 -0.0018515979 49.99807 -0.0030676967 -33619.652 -8030.7275
173636.26862892 0.25455159 -5.5592737 49.986526 0.0010154682 50.001759 -0.0014258384 -57729.422 -19344.885
174568.97049855 0.25804186 -5.5015669 49.995911 0.00090071594 50.001785 -0.0032135909 -37417.797 -30766.891
175506.68245498 0.24594776 -5.4820313 50.006294 -0.0049209716 50.002598 -0.0063834218 -29172.143 -26483.98
176449.43141032 0.23364633 -5.4449534 49.999485 0.0036503279 49.998642 -0.00052316964 -32228.385 -12992.23
177397.24442123 0.24533883 -5.4123569 49.999603 -0.0032315175 49.995789 0.00070878002 -53440.863 2786.8838
178350.14868971 0.24574666 -5.377491 50.000919 0.0018594795 49.998997 0.002106352 -50861.699 13976.309
179308.17156388 0.22604552 -5.3622012 50.002777 0.0032935438 49.993092 -0.010617483 -27369.215 -20769.41
180271.34053877 0.25333875 -5.3420687 49.992863 0.0019048424 49.9916 0.0010808839 -32692.752 -14410.111
181239.68325708 0.23955254 -5.2942743 50.006672 -0.00097812549 49.995682 -0.00065732223 -30067.762 -24044.785
182213.22751002 0.23116453 -5.2616625 49.998917 0.0042407033 49.995674 -0.0020132726 -28154.805 -13449.378
183192.00123807 0.24839073 -5.240593 49.997665 0.0077937962 49.996452 -0.0040393579 -46049.684 -9646.6973
184176.0325318 0.23080984 -5.2063217 50.000221 0.0067558126 50.000992 0.0067289202 -20585.104 -13627.825
185165.34963266 0.26823378 -5.1822963 49.999908 -0.0034043584 49.997093 -0.0009754565 -28029.9 -19316.217
186159.98093381 0.23086192 -5.1738019 49.993507 0.0033093309 49.997852 -0.005795768 -36535.254 -20345.859
187159.95498093 0.23320854 -5.1348882 49.996098 0.0052162181 50.007328 -0.00021355733 -23438.42 -12324.189
188165.30047303 0.24754553 -5.1003904 50.000443 0.0058679008 50.002934 0.0036268695 -41967.391 1518.7816
189176.04626328 0.24798553 -5.0851178 50.006641 0.00096620241 50.00098 0.0012248897 -56218.586 3007.5591
190192.22135984 0.25351349 -5.0395594 50.000755 -0.0013777736 49.993561 -0.00097931887 -48073.363 8104.9355
191213.85492668 0.24934553 -5.0290923 49.998775 -0.0042698388 49.997314 0.0022954205 -46581.969 -39143.492
192240.97628443 0.24199632 -4.9998493 50.005581 0.00043503841 50.000298 -0.001565699 -38549.082 -12212.581
193273.61491124 0.24251604 -4.9543037 50.008137 0.00020801925 50.003181 0.0046999995 -22484.893 -26890.846
194311.80044357 0.23479035 -4.9385047 49.996677 -0.00067547458 50.00391 -0.0032491749 -22496.971 -19689.027
195355.5626771 0.24869658 -4.9118271 49.999767 0.0011123805 49.998489 0.00057767256 -60518.301 -15839.14
196404.93156754 0.24865434 -4.8862348 50.002411 0.00089128228 49.997559 0.0021772382 -27988.877 -8197.4004
197459.93723154 0.2583864 -4.8701468 49.995556 0.0016195832 50.003529 -0.00093868369 -19837.543 -14304.444
198520.60994748 0.25124502 -4.8489895 50.002583 0.00016849002 50.00153 -0.0039079688 -37707.949 -8244.2109
199586.98015643 0.23744684 -4.8079123 50.001259 -0.0030483168 49.99963 -0.0025967576 -24046.037 -12405.002
200659.07846295 0.24606684 -4.7820263 50.007572 0.0019413328 50.0019 0.001375459 -54558.891 21190.436
201736.93563598 0.25051051 -4.7571106 50.000107 0.0016593563 50.001141 -0.0035602041 -41774.508 -8973.2461
202820.58260979 0.2470694 -4.7374344 49.998478 -0.0021702521 50.002316 -0.00056016888 -36341.016 -21891.273
203910.05048475 0.24892303 -4.7006869 50.006866 -0.0021946807 50.000549 0.002320417 -25884.646 -19762.377
205005.37052835 0.24821877 -4.6772614 50.00082 -0.00086942129 49.99762 0.0029715267 -36281.652 -6238.7793
206106.57417599 0.24904127 -4.6606135 49.998371 0.0034542242 50.000736 -0.0033527783 -24708.621 -10144.185
207213.69303195 0.25447232 -4.6237211 49.987846 -0.0079135187 50.000591 -0.0037919837 -26281.943 -19758.555
208326.75887027 0.22838567 -4.5982528 49.993935 0.0035569125 49.996723 0.0010234604 -66769.523 -16002.599
209445.80363567 0.24541882 -4.5829592 49.994469 0.005305273 49.997719 -0.0014389021 -28777.77 -16174.32
210570.85944446 0.25587615 -4.5566783 50.004166 -0.0075657223 49.998802 -0.00012641236 -28331.51 -20494.814
211701.95858547 0.24330613 -4.534523 50.004875 -0.0051934137 49.999413 0.0033255175 -44662.434 -1502.2083
212839.13352097 0.23337363 -4.5045743 49.995949 0.0042735552 50.002029 0.0029245699 -24662.045 -6789.5762
213982.41688759 0.24138872 -4.475759 50.000923 0.0078437235 49.998081 -0.0013902877 -29667.682 -5065.626
215131.8414973 0.22979827 -4.4561391 49.999306 -0.0015009021 49.998104 -0.001391123 -51573.254 -53154.156
216287.44033829 0.2371335 -4.4446664 49.994137 -0.0046414402 50.005817 0.0025052833 -38979.133 -26667.916
217449.24657598 0.24563412 -4.4196997 49.995728 0.0021459444 50.000114 -0.0035022676 -13353.508 -11835.676
218617.29355391 0.23756233 -4.3793473 49.995327 -0.0050867316 49.99305 -0.0025746031 -32045.209 -18909.791
219791.61479476 0.23779717 -4.3615856 50.00325 0.00015350393 49.997417 0.00018770799 -45316.242 -25513.053
220972.24400124 0.23343879 -4.3431082 50.00322 -0.0047140778 49.999771 0.00052710064 -65698.445 -7579.1362
222159.21505714 0.21779712 -4.3187976 49.995522 0.0024625373 50.004547 -0.0017782655 -35269.129 -14211.866
223352.56202824 0.24290738 -4.2895761 49.998783 0.010675729 50.004505 -0.0036855717 -32091.539 -6235.8252
224552.31916329 0.23749229 -4.2604189 50.004635 0.00019437799 50.003056 0.00095467013 -37892.449 -30120.877
225758.52089503 0.22767097 -4.2501187 49.998196 -0.00545655 49.99509 -0.0012812947 -35854.094 5056.6626
226971.20184117 0.237372 -4.2201905 50.000427 -0.0015212622 50.003368 0.0029813489 -27979.734 -6496.7417
228190.39680534 0.21972138 -4.1943421 49.999252 0.0032657576 49.996681 -0.0050636134 -42835.867 -6460.3174
229416.14077815 0.23524918 -4.1725693 50.001583 -0.0019074214 50.001934 -0.0027334138 -20513.545 -12606.886
230648.46893815 0.24021462 -4.1507297 50.003029 0.00072137226 50.00396 -0.0058931299 -49725.723 -1610.7239
231887.41665285 0.24326214 -4.1323705 50.000374 -0.0015125197 49.998703 -0.0042414288 -38491.535 -2682.3123
233133.01947975 0.23788604 -4.1062613 49.997498 0.003752684 49.996651 0.00094636501 -30198.965 -398.80933
234385.31316734 0.23085064 -4.0772333 49.99091 -0.0035844564 50.000301 -0.001526771 -29700.539 -13812.17
235644.33365616 0.24327853 -4.0566845 49.99892 0.0030680315 49.992973 -0.0056308657 -57803.344 -34701.43
236910.11707978 0.24165449 -4.0336895 49.997593 0.00028544886 50.011738 0.00067772472 -32622.088 -1874.1018
238182.69976588 0.2414405 -4.0183187 49.99839 0.0017913503 50.001293 -0.0027778728 -30479.203 -3824.1169
239462.11823726 0.22870071 -3.9964027 49.996395 0.0025436967 49.994278 0.0031920753 -25360.822 -6927.0098
240748.40921293 0.2524879 -3.9597561 49.997215 0.0019187127 50.001724 0.001284693 -39906.676 -3638.313
242041.60960912 0.24087898 -3.9460692 50.000603 0.0044628284 50.0051 0.0091956025 -54807.52 -2238.301
243341.75654037 0.22902489 -3.9320586 50.009613 -0.00013535823 49.998245 -0.0073505878 -44407.488 -8795.1602
244648.88732058 0.25219995 -3.9137053 50.010605 -0.00020148835 50.004505 0.0028042758 -28565.904 -27563.691
245963.03946408 0.23457243 -3.897867 49.999928 -0.0033371053 49.995735 -0.0020916692 -22954.018 -12127.722
247284.25068671 0.22682655 -3.862505 50.001682 0.0016298036 50.001896 -0.0027442172 -56532.563 -24813.893
248612.55890692 0.23278673 -3.8452811 50.002235 -0.00068756507 49.995457 0.0068661151 -27180.223 -9030.0957
249948.00224683 0.23036273 -3.8381362 49.993134 0.003027149 50.000217 0.0020845863 -31722.172 -15082.056
251290.61903333 0.23344541 -3.8021314 49.995262 0.0022889704 50.007198 -0.0046317223 -56142.586 -27352.607
252640.4477992 0.22071576 -3.7731669 50.002499 -0.0070184036 50.002632 -0.0019696353 -23172.426 -31798.387
253997.5272842 0.23345764 -3.7685809 50.002838 0.0015754011 49.996536 -0.0088723656 -38730.934 897.66864
255361.89643616 0.2359328 -3.7444758 50.005852 0.002177954 50.001556 -0.0050311624 -44702.902 10431.795
256733.59441217 0.22729628 -3.7177951 50.000023 0.001018292 49.997059 -0.00090156414 -28854.734 -19738.342
258112.6605796 0.23355766 -3.6969078 49.999985 -0.0010189404 49.997429 0.001340351 -103714.95 -31147.375
259499.13451733 0.23258716 -3.693372 49.996918 0.0026278272 49.995789 -0.0035173944 -73656.133 18022.693
260893.05601682 0.22122358 -3.6464713 50.001305 0.0015505967 49.999153 0.0027563311 -41866.098 -5666.3604
262294.46508327 0.2334201 -3.6439273 49.99902 -0.00022282799 49.995213 0.0048250151 -26025.416 -7097.2104
263703.40193678 0.23030904 -3.6213195 50.005878 0.001381525 50.000622 0.0044873944 -34107.203 9744.7705
265119.9070135 0.22735929 -3.596148 50.000778 -0.0049361908 50.000954 0.0062907012 -31908.514 -11037.561
266544.02096677 0.22833638 -3.5730114 49.999771 -0.00044290806 50.000446 -0.0013492786 -70351.133 3181.8713
