!Keysight Technologies,E5080A,MY55200853,A.11.70.00
!Date: Tuesday, July 02, 2024 14:56:11
!Correction: S11(Full 2 Port(1,2)) 
!S21(Full 2 Port(1,2)) 
!S12(Full 2 Port(1,2)) 
!S22(Full 2 Port(1,2)) 
!S2P File: Measurements: S11, S21, S12, S22:Log Frequency Sweep
# Hz S  RI   R 50
100000 -0.01128858 -0.0025168373 0.99519867 -0.0057745185 0.99490803 -0.0044521927 -0.00038338566 0.0032473502
100537.15843873 0.0081960652 -3.8524464e-005 1.0064454 -0.00010968094 1.006247 -0.0027364094 -0.0013709371 2.5905204e-006
101077.20226934 -4.4904773e-005 0.00085737783 1.0002807 -0.0040963246 0.99979323 -0.0012054548 -0.0016307307 0.0029685902
101620.14699096 -6.0229115e-005 0.0022183321 1.001629 -0.00071293151 0.99989349 -0.0016588081 -0.0018406637 -0.00019057102
102166.00818597 0.0002347843 0.00052070234 1.0002981 -0.0016183526 0.99962723 -0.002996013 -0.0005679293 0.0025913215
102714.80152045 -0.0002225472 0.00054127211 0.99981284 -0.0014752428 1.0007515 -0.00054505258 -0.00088098645 0.0016350083
103266.54274464 0.00053000328 0.00065854244 0.99862319 -0.002306171 1.000912 -0.0012370674 -0.00075743528 0.0019847543
103821.24769338 4.9033522e-005 0.00081898109 1.0004098 -0.0019961062 0.99943703 -0.00074775331 0.00011092631 0.0022460585
104378.93228656 -0.00079823728 0.0010533204 0.99953055 -0.00095055881 0.9990133 -0.00073712604 -0.00011285429 0.0018141449
104939.61252959 0.00016778296 0.0013500117 0.99935251 -0.00036057748 0.99971056 -0.00054983952 -0.00066599593 0.0024686847
105503.30451386 -0.00058044971 0.00023597646 0.99967849 -0.001238385 0.9995051 -0.0013510131 -0.0010081747 0.0020133364
106070.02441719 -0.00051089679 0.00055703934 0.99902749 -0.001574371 1.0000448 -0.0010278844 -0.00054313033 0.0020901586
106639.78850431 0.001062911 0.0011513581 0.99980146 -0.0011363905 0.99995172 -0.0015284278 -0.00086742837 0.0016484782
107212.61312731 0.00043675443 0.00202082 0.99999529 -0.0016290614 0.99972785 -0.0017015303 -0.00014735368 0.0010730976
107788.5147261 0.00064425071 0.0007164515 0.99989784 -0.001654868 0.99936694 -0.0015881264 -0.00077910093 0.00117721
108367.50982893 -2.7199558e-005 -0.0012060906 0.99992919 -0.0022124508 0.99979496 -0.0014117531 -0.00036171093 0.0023222198
108949.61505282 0.00072753621 0.00059126993 0.99990714 -0.0015075578 1.0002776 -0.0016105885 9.4032739e-006 0.0015855905
109534.84710404 0.0015576923 0.0016740608 1.0000559 -0.0018444685 0.99973977 -0.0012701812 -0.0013402003 0.001096088
110123.2227786 0.00027228391 0.001032563 0.99978644 -0.0012443651 0.99978101 -0.0017006282 -0.00061239552 0.0012716784
110714.75896276 -0.00081364071 0.0021915201 0.99945134 -0.0013362184 0.99963945 -0.0014703776 -0.00038175873 0.00040586869
111309.47263345 0.00029288296 0.0017465146 1.0002493 -0.0014346174 0.99972594 -0.00078431069 -0.00035529115 0.0011404665
111907.3808588 0.0013878882 0.00088863459 0.99963844 -0.0016120162 0.99957156 -0.0016071639 -0.0015922358 0.0015690085
112508.50079864 0.00047209102 0.00045401941 0.99993831 -0.0012879875 0.9997077 -0.0010101276 -0.0008356882 0.0027669761
113112.84970497 0.00095208338 0.0016854578 1.000349 -0.0015623529 0.99998587 -0.0012696838 -0.0011230224 0.0016361077
113720.44492245 0.00072918372 0.0030932305 0.99965179 -0.00084695563 1.0001849 -0.0016102624 -0.001118247 0.0001723726
114331.30388891 0.00030937325 0.0026906803 1.000026 -0.0014069986 1.0000569 -0.0012177575 -0.00057762821 0.0022195429
114945.44413585 -0.00049986935 0.0014976668 0.99970973 -0.0015482007 0.99856997 -0.0011972303 -0.0010613726 0.00091259414
115562.88328896 -6.4659944e-005 0.00063275476 0.99949557 -0.0019751571 0.9991222 -0.00086403149 -0.0009893158 0.0014030728
116183.63906859 0.00036446415 0.000588945 0.99940354 -0.0017579134 0.99961984 -0.0012513746 -0.0017130489 0.0018102418
116807.72929027 -0.00063885178 0.0016426344 1.0001025 -0.0016629584 0.99970126 -0.0014734943 0.00035978248 0.0015599125
117435.17186524 -0.00015296192 0.0012464608 0.99885547 -0.0013033811 0.99999589 -0.0026918838 -0.00065564818 0.001752601
118065.98480095 0.0006451208 0.00087714836 0.99957657 -0.0015505286 1.0003173 -0.0013299768 -0.00079738523 0.0014378118
118700.18620157 -0.00032148862 0.00093671062 0.99982601 -0.0017139987 0.99930662 -0.0021446946 0.00034292601 0.00074199896
119337.79426854 -0.00066103332 0.0017855822 0.99957979 -0.0016468877 0.99990547 -0.0015123201 -0.00014401389 0.0012806513
119978.82730105 -0.00034713466 0.0015769792 0.99941361 -0.0017283991 0.99943858 -0.00098090409 -0.00072742562 0.0017483737
120623.30369658 -0.0013138094 0.0014309881 0.99919367 -0.0013805859 0.99948609 -0.0012635834 -0.00059517391 0.0013240849
121271.24195146 0.00088899053 0.0009609565 0.99947864 -0.0016831883 1.0000149 -0.0016049759 -0.00092046603 0.0016358257
121922.66066135 0.00097328413 0.0016460165 0.99972826 -0.0013968112 1.0000923 -0.0011767173 -0.00041206545 0.0020547512
122577.57852182 0.00034809616 0.00060817564 0.99935079 -0.001753529 0.99972224 -0.0012978412 -0.00063274329 0.0022428015
123236.01432884 0.00080479257 0.001594914 1.0001187 -0.0012684249 1.0002141 -0.0015376923 0.00016915116 0.0021528017
123897.98697936 0.00035702647 0.00075838034 0.9998678 -0.0019684506 0.99985546 -0.0018635272 -0.00064633565 0.00097735017
124563.51547183 -0.00086977892 3.2241904e-005 1.0000538 -0.0011358431 0.99970734 -0.0013835044 0.00036550683 0.0023661775
125232.61890677 0.0010004085 0.0018446202 0.99992776 -0.0011491664 0.99967682 -0.0014037173 -0.0012699286 0.0019258535
125905.31648726 -0.0009174709 0.0028785667 0.99909544 -0.002031296 1.0005745 -0.0013690102 -0.00012262046 0.001036037
126581.62751958 0.0011401771 0.00023649514 1.0000319 -0.0021874614 0.99968106 -0.0012155602 -0.0014877938 0.0025939778
127261.57141368 -6.2522275e-005 0.00042580994 1.0002404 -0.0018531486 0.99947846 -0.00096795085 -0.00073197269 0.0016382653
127945.16768379 0.00027485247 0.0017869795 1.0002892 -0.0021333953 0.99953276 -0.0012420474 -0.00017456134 0.0020043962
128632.43594895 -0.0011675188 0.0014677679 0.99898756 -0.0017723797 0.99987352 -0.001731829 0.00098557735 0.0018574303
129323.39593359 9.8361779e-005 0.0010297091 0.99980712 -0.0018962161 0.99914366 -0.0013461837 -0.00090155599 0.0021576739
130018.0674681 0.00057493191 0.0021438971 1.0000062 -0.0011688544 0.9989326 -0.0020984754 -0.0020428535 0.0014014565
130716.47048938 -0.00014494685 0.0020993263 0.9995985 -0.0016143086 0.9994514 -0.0017524464 -0.00047139367 0.001407351
131418.62504142 0.0010358446 0.0015244634 1.0001861 -0.0013515203 0.99990511 -0.0015935542 -0.0012093859 0.0013922241
132124.55127589 0.00034645069 0.0021423495 0.99999827 -0.0018493085 0.99955052 -0.0021202073 -0.00068417756 0.0011551684
132834.2694527 -0.00041284401 0.001269469 0.99970585 -0.00090362935 0.99950618 -0.0011514177 -9.886569e-005 0.0032351569
133547.79994059 -0.0002877911 0.0015153164 1.0002958 -0.0014771433 0.99954844 -0.0014171253 0.00067217107 0.0020607093
134265.1632177 0.00056720525 0.0021836287 1.0006592 -0.00073528377 1.0000825 -0.0015555648 -0.00026891122 0.0019789306
134986.3798722 0.00041521896 0.0012265744 0.99952996 -0.0018384709 0.99988246 -0.0019784977 -0.0010160886 0.0013557581
135711.47060282 -0.0012253865 0.0009097872 0.9990986 -0.0018102706 0.99969649 -0.0018518043 4.2119464e-005 0.002585202
136440.45621948 -0.00020750448 0.0023488461 1.0000057 -0.0014001339 1.0000169 -0.0017251867 0.00018514667 0.0019425647
137173.35764391 0.0017336744 0.0017974989 0.99937731 -0.0016571259 0.99964547 -0.001757609 -0.0027267782 0.0016504433
137910.19591018 0.00037222917 0.0023542915 1.000038 -0.0021119299 1.0003927 -0.0015188943 -0.00025988847 0.00078712986
138650.99216538 -0.00066039106 0.0021110552 0.99937731 -0.0017163235 0.99944329 -0.0015694376 0.00010855219 0.001882049
139395.76767017 0.001251568 0.0019393618 1.0002404 -0.0015482233 1.0001968 -0.0013383051 -0.00055183721 0.0024031627
140144.54379944 -0.0011970962 0.00251419 0.99928987 -0.0015973826 0.99934471 -0.0014185057 0.00024807127 0.0014640327
140897.34204288 0.00021351941 0.0037123943 0.99962562 -0.0018059679 0.9993996 -0.0017394114 -0.0012988666 0.0011820399
141654.18400561 0.0012193032 0.0011113794 1.0001976 -0.0022703775 0.9996478 -0.002024343 -0.0012188042 0.0020747436
142415.09140881 -0.0011249082 0.0018477181 0.99868417 -0.0015188914 0.99992317 -0.0015514616 0.00059505785 0.0023395943
143180.08609033 0.00042081843 0.0021305319 0.99997634 -0.0022477065 0.99976331 -0.0015220547 -0.00085080625 0.0020171807
143949.19000534 4.4803119e-006 0.00094153889 1.0000246 -0.0021224264 0.99991947 -0.0012880691 -0.0001409644 0.0026633667
144722.42522694 0.0007203776 0.0027688385 0.99951762 -0.0019684297 0.99946445 -0.0018484152 -0.0011165115 0.00081873062
145499.81394678 -0.00073828164 0.0018404151 0.9992286 -0.0012549086 0.99946833 -0.0023603691 -0.00059414853 0.0014031272
146281.37847573 0.0011387058 0.0011627126 1.0000281 -0.0016887811 0.99958402 -0.0016968744 -0.0013114269 0.0028250867
147067.1412445 0.00049091998 0.00079039775 0.99995834 -0.0020117476 0.99983817 -0.0022678133 -0.00047264303 0.0022657563
147857.12480429 0.00094927615 0.0029551925 0.99937868 -0.0021497263 0.99921906 -0.0012119872 -0.0015342004 0.0020277889
148651.35182744 0.00020935966 0.0025237924 0.99952787 -0.0022982578 0.99921364 -0.0024004909 -0.0010217655 0.00096101454
149449.84510806 0.00096163561 0.0019277233 1.0004185 -0.0022375083 0.99934477 -0.0021049245 -0.00059181656 0.0018566634
150252.62756273 -0.00052426755 0.0018807364 0.99948645 -0.0026698401 0.99879003 -0.0020585572 -0.0009701844 0.00071452104
151059.72223109 0.00049712195 0.0019003409 0.99970293 -0.0016268293 0.99976683 -0.0016919666 -0.00096374698 0.0029337781
151871.15227658 0.00065541588 0.0011757523 1.0003126 -0.0017073462 1.0000988 -0.0017584441 -0.00016604336 0.003011646
152686.94098702 0.0002094997 0.002769368 0.99986315 -0.0017136068 0.99989367 -0.0015585752 -0.00056603522 0.0015398478
153507.11177537 -0.00057358295 0.0016243731 0.99908823 -0.0017860865 0.99913126 -0.0018539833 -0.00072042271 0.003360468
154331.68818032 0.0002792007 0.0016358641 0.99975294 -0.0019235139 0.99955779 -0.002120778 -0.0010999785 0.001994164
155160.69386701 -0.00045560245 0.0015276585 0.99970251 -0.0018457926 0.99947393 -0.0019044828 -0.00057597324 0.0032409602
155994.15262771 0.00026532434 0.0018139919 0.99998558 -0.0016416101 0.99934107 -0.0018130955 -0.0002156405 0.002818363
156832.08838247 -0.00021443517 0.00079407869 0.99948144 -0.0022536942 0.99949139 -0.0022157137 -0.00096262433 0.0026792202
157674.52517985 0.00014071762 0.0032235824 0.99942237 -0.0016694497 0.99976367 -0.0022532621 1.7151851e-006 0.0016744052
158521.48719758 0.0017799644 0.0018783147 0.99988586 -0.0023744146 0.99987769 -0.0018478528 -0.0013984614 0.0031420372
159372.99874326 -0.00080265792 0.0025853433 0.99884856 -0.0022616347 0.99946737 -0.0015733339 -0.00035010432 0.0012532149
160229.08425507 0.00030230443 0.002826029 0.99978429 -0.0022530956 0.99953586 -0.0016460234 -5.1461525e-006 0.0012352539
161089.76830244 0.00043593394 0.0031540426 1.0000966 -0.0010666595 0.99955112 -0.0019556028 -0.0012077353 0.0019196005
161955.0755868 0.0010366422 0.0018586757 0.99945688 -0.0021645147 1.0000943 -0.0026164835 -0.001242693 0.0017274335
162825.03094227 0.00018911574 0.0025541037 0.99930936 -0.0016568275 0.99940574 -0.0020450274 -0.00094181497 0.0022624431
163699.65933634 0.00035431501 0.0014830747 0.99957734 -0.0024222711 0.99945152 -0.0024105187 -0.0014914807 0.0017586598
164578.98587063 -0.00035468795 0.0035647477 0.99966919 -0.0024835016 0.9995904 -0.0020495921 -0.00013727702 0.00095404708
165463.03578161 0.00032521397 0.0026615537 0.99926722 -0.0020594741 0.99979186 -0.0024351627 -0.0009947127 0.0013667978
166351.83444129 -4.225333e-005 0.00076719967 0.9999584 -0.0023505676 0.99970973 -0.0024299547 -3.6499408e-005 0.0027234198
167245.40735797 -0.0005846509 0.0025247089 0.99903417 -0.0021385918 0.99950546 -0.0018828079 -0.00019826446 0.0025647436
168143.78017698 -0.00053290307 0.0012412143 0.99971557 -0.0022389016 0.99940419 -0.0017883854 -4.2724878e-005 0.0036628072
169046.97868139 0.00034452413 0.0031958302 0.9997074 -0.0016332229 1.0003797 -0.0020187933 6.9589267e-005 0.00082853466
169955.0287928 -0.00042309077 0.0018138499 0.99979562 -0.0021566392 0.99909884 -0.0024319487 -0.00038593722 0.0016899735
170867.956572 0.00049413426 0.001133048 0.99952531 -0.0022231804 1.0000256 -0.002558046 -0.00031795315 0.0026841406
171785.78821981 -0.0009493776 0.0022928438 0.9997704 -0.0028981699 0.99947953 -0.0024432524 0.00041359235 0.0022425829
172708.55007777 -0.00010194846 0.0027383226 0.99932313 -0.001667329 0.99974537 -0.0020487399 -0.00069236429 0.0017871545
173636.26862892 -0.00058530713 0.0018074583 0.99961448 -0.0019177821 0.99986744 -0.0022427179 -5.7348079e-005 0.003529313
174568.97049855 0.00072000653 0.0010722405 1.0001619 -0.0017741646 0.99938083 -0.0021726314 -0.00084549811 0.0031466018
175506.68245498 0.0001683021 0.0019901891 1.0003314 -0.001843226 0.99931312 -0.0019801296 -0.0006511719 0.0022776765
176449.43141032 -0.00021049184 0.0013718086 0.99951744 -0.0020986213 0.99992192 -0.0028005899 0.00047555866 0.0026429459
177397.24442123 0.00026216102 0.0024041105 0.99932849 -0.0026061756 0.9998945 -0.0016053701 -0.00085783564 0.0019189445
178350.14868971 0.0013681427 0.0030313483 1.0001502 -0.0018874299 0.99943858 -0.0027409126 -0.0010923018 0.0014689217
179308.17156388 0.0010254676 0.0026123298 0.99913394 -0.002144095 0.99938303 -0.002135006 -0.0013290063 0.0025676999
180271.34053877 0.00048693435 0.0013923325 0.99968946 -0.0021534429 0.99970222 -0.0027416055 -0.00082272943 0.0027177876
181239.68325708 0.00053628301 0.0030193245 0.99905062 -0.0019969626 0.99907136 -0.0016927967 -0.0015932396 0.0020834187
182213.22751002 -0.00022850931 0.0016785506 0.99927139 -0.0023440379 0.99883115 -0.0018673214 -0.00069617119 0.0030388965
183192.00123807 0.00023087066 0.0021445835 0.99986863 -0.0021034097 1.0002316 -0.0022087342 -6.8725683e-005 0.0024898937
184176.0325318 0.00078274863 0.0017141066 0.99994785 -0.0026840381 0.99987614 -0.0026770507 -4.3724049e-005 0.0018663619
185165.34963266 -0.0007153094 0.0016086231 0.99917018 -0.0026692653 0.999933 -0.0022546046 -0.00061822851 0.002957524
186159.98093381 0.0002538616 0.0024981601 0.99977702 -0.0027823308 0.99956459 -0.0021100005 -0.00045329382 0.0021288684
187159.95498093 0.00053659984 0.0020491595 1.0001101 -0.0018191489 1.0001498 -0.002963356 -0.00017636745 0.0028284953
188165.30047303 -0.00057176664 0.0014002217 0.99982613 -0.0020594974 0.9993363 -0.0029305781 0.00036045967 0.00329287
189176.04626328 0.0010783187 0.0024846238 0.9997049 -0.0025942971 0.99957401 -0.0026754739 -0.00089777674 0.0015153143
190192.22135984 -0.00091177959 0.0029726224 0.99962664 -0.0024656095 0.99948758 -0.0019095492 0.00027580213 0.0024410833
191213.85492668 -0.00034159073 0.0018766085 0.99904817 -0.0018130589 0.99965286 -0.0019101055 -0.00076711003 0.0042732842
192240.97628443 -0.0013883429 0.0031250028 0.99944025 -0.0017159652 0.99983209 -0.0026179473 0.00066340517 0.0026880216
193273.61491124 -8.2098857e-005 0.0022180923 1.000007 -0.0025816541 0.99948257 -0.0021878199 -0.00073941 0.0018297762
194311.80044357 -0.00049246592 0.0021713339 0.99992347 -0.0022742061 0.99959302 -0.0024193153 0.00092251028 0.0029809736
195355.5626771 0.00068659266 0.0028105793 0.99975151 -0.0023224163 0.99951017 -0.0020517386 -0.0014776792 0.0028121863
196404.93156754 -0.00071529305 0.0021695199 0.99890727 -0.0027632434 0.99951208 -0.0033880088 0.00064483559 0.0020970567
197459.93723154 -0.00076215161 0.0023362348 0.99907559 -0.0024119494 0.99955904 -0.0032091131 0.00013879185 0.003147308
198520.60994748 -0.0001393282 0.0031455329 0.99975079 -0.0027150949 0.99926615 -0.0030917483 -0.00088179449 0.0010605725
199586.98015643 0.0011939759 0.003177512 1.0000855 -0.0026109857 0.99970239 -0.0025798324 -0.0020839504 0.0024256797
200659.07846295 -0.0012090943 0.0019011695 0.99897087 -0.0029127556 0.99966091 -0.0032540914 0.00032678223 0.0019836035
201736.93563598 0.00051918888 0.0011191788 0.99981833 -0.0024112603 0.99956435 -0.0028971371 -0.00046669826 0.0029991171
202820.58260979 -2.4925757e-005 0.0023681924 0.99948895 -0.0021918523 0.9996025 -0.0025361679 6.6259119e-005 0.0030384823
203910.05048475 -0.00055242161 0.001730563 0.99924946 -0.0026964797 0.99928325 -0.0022256558 -0.00038252061 0.003969437
205005.37052835 -0.0014322129 0.0025703022 0.99912655 -0.0020402307 0.99931157 -0.00264288 0.00086190121 0.0031045212
206106.57417599 0.00019647386 0.0017356068 0.99985546 -0.0028350111 0.99976629 -0.0035330658 0.00012764974 0.0014160837
207213.69303195 0.00011512013 0.0035394847 0.99912906 -0.0025988282 0.99978083 -0.0031055028 -0.0006685711 0.0016455168
208326.75887027 -0.00061031716 0.0012826185 0.99980617 -0.0031553055 0.99930102 -0.0030152427 0.00017683105 0.0029726215
209445.80363567 -0.00054389448 0.0030978706 0.99985963 -0.0025895524 0.99993938 -0.0019013165 0.00048789289 0.0026785394
210570.85944446 0.00090557541 0.0016630158 0.99989665 -0.0033016528 0.9997434 -0.0023799394 -0.00059860985 0.0025581268
211701.95858547 -0.00065508991 0.0026132269 0.99945801 -0.0028669289 0.99991292 -0.0030523536 0.00034667933 0.0022203408
212839.13352097 0.00095131545 0.0037576426 0.99999201 -0.0017422824 0.99944037 -0.0020775676 -0.00068563787 0.0030953942
213982.41688759 0.000764672 0.0020702223 0.99969935 -0.002379834 0.99921042 -0.0031937689 -0.0021593163 0.0037859026
215131.8414973 0.00093433034 0.0020086609 0.99988985 -0.0026720229 0.99981529 -0.0025238562 -0.00084854657 0.0031921265
216287.44033829 -0.00015692995 0.0035509462 0.99957693 -0.0018765607 0.99955255 -0.002489493 -0.0011512208 0.0030791811
217449.24657598 1.0434522e-006 0.002809132 0.99953264 -0.0028168857 0.99941945 -0.0021429439 -0.00071658479 0.0028658968
218617.29355391 0.00013931445 0.0021542225 0.99988353 -0.0032117637 0.9994809 -0.0036803896 -0.0010387929 0.0016109779
219791.61479476 -0.00061096653 0.0033226779 0.99926394 -0.0026196702 0.99964869 -0.0027979931 -0.00030115302 0.0018748993
220972.24400124 -0.0002946945 0.002783542 0.9993844 -0.0028649748 0.99963969 -0.0020356311 -8.3453568e-007 0.0030210244
222159.21505714 0.00046261097 0.0029368899 1.0000186 -0.0026219615 1.0001265 -0.0029848856 9.6355725e-005 0.0019548866
223352.56202824 -0.00037630476 0.0021349229 0.9988727 -0.0027379154 1.0000542 -0.0031759471 -0.00045069744 0.0025553016
224552.31916329 2.6077421e-005 0.0034408697 1.0001287 -0.0031428989 0.99995464 -0.0024826229 0.00019946818 0.0022171813
225758.52089503 -0.00017723831 0.0035344085 0.99946189 -0.0031707182 0.99963731 -0.003191296 -0.00042832948 0.00092473376
226971.20184117 -0.00060938543 0.0031178244 0.99952763 -0.0026587017 0.99950969 -0.0032696768 0.00035619098 0.0023422928
228190.39680534 0.00021386836 0.0022619036 0.99961823 -0.0022285972 0.99932098 -0.0033849915 -0.00022287674 0.0036694719
229416.14077815 0.00094239239 0.0034410348 1.0001682 -0.0026851981 0.99913669 -0.0030680182 -0.001066845 0.0022557147
230648.46893815 0.00019215177 0.0031182712 0.99925435 -0.0037530023 1.0002567 -0.0034860009 -0.00058589678 0.0015224394
231887.41665285 0.00068309356 0.0020588171 1.0002059 -0.0038008527 0.99976432 -0.0031167595 -7.5675052e-005 0.0033695262
233133.01947975 -0.0012646958 0.0026327604 0.99937254 -0.0024116358 0.99917138 -0.0032107977 0.00016801995 0.0037284719
234385.31316734 6.8492169e-005 0.0024055904 0.99934345 -0.0027170605 0.99984348 -0.0032152741 -0.00091066357 0.0029584125
235644.33365616 -0.00074785837 0.0041011819 0.99917698 -0.0021560208 0.99954009 -0.0030094117 0.00041727861 0.0021912951
236910.11707978 -0.00019620998 0.0025739579 0.99923617 -0.0031730838 0.99959433 -0.0031202484 -0.00065162947 0.0025375769
