!Keysight Technologies,E5080A,MY55200853,A.11.70.00
!Date: Wednesday, June 05, 2024 14:08:17
!Correction: S11(Full 2 Port(1,2)) 
!S21(Full 2 Port(1,2)) 
!S12(Full 2 Port(1,2)) 
!S22(Full 2 Port(1,2)) 
!S2P File: Measurements: S11, S21, S12, S22:Log Frequency Sweep
#Hz S  RI   R 50
100000 0.80219167 -0.30430028 0.15844765 0.298159 0.15553479 0.29609293 0.80724412 -0.4095718
100537.15843873 0.87173384 -0.40027329 0.12829116 0.31864762 0.13158743 0.31618714 0.86815679 -0.43340468
101077.20226934 0.85298365 -0.35794741 0.16057405 0.32839495 0.15898521 0.32753158 0.81670499 -0.43766734
101620.14699096 0.88574624 -0.34957701 0.12794821 0.31366146 0.12947376 0.31031612 0.85809183 -0.41819149
102166.00818597 0.85005981 -0.35320634 0.16115355 0.31683207 0.16010213 0.3153992 0.81787288 -0.42371228
102714.80152045 0.87476045 -0.3633807 0.14137714 0.32434475 0.14151122 0.32340282 0.84314919 -0.4337267
103266.54274464 0.85632348 -0.35015914 0.15507403 0.31350493 0.15435892 0.31424403 0.82537776 -0.42230067
103821.24769338 0.86234307 -0.35996622 0.15194592 0.32161063 0.15074022 0.32170236 0.83007777 -0.42945665
104378.93228656 0.86257708 -0.35674858 0.15166993 0.32167786 0.1516363 0.32132718 0.82936299 -0.43267688
104939.61252959 0.85963279 -0.35721669 0.15365891 0.32179424 0.15337507 0.32146451 0.82790357 -0.43046537
105503.30451386 0.86032009 -0.35921967 0.15463299 0.32243586 0.15470199 0.32236525 0.82636672 -0.43379012
106070.02441719 0.85906261 -0.36190429 0.15565166 0.32395151 0.15522169 0.32363167 0.82397592 -0.43386188
106639.78850431 0.85953987 -0.36093491 0.1555436 0.32362226 0.15561946 0.32382649 0.82376981 -0.43494433
107212.61312731 0.85566336 -0.36414012 0.15948409 0.32504812 0.15897731 0.32495874 0.82185054 -0.43682569
107788.5147261 0.85369897 -0.36645776 0.16019879 0.3264367 0.16020302 0.32652184 0.81962687 -0.43917257
108367.50982893 0.85168588 -0.36686006 0.16277859 0.32818562 0.16263896 0.32827634 0.81691235 -0.44147092
108949.61505282 0.85379237 -0.36924031 0.16185264 0.33027515 0.16180399 0.33025464 0.81795746 -0.4436655
109534.84710404 0.85091853 -0.37047368 0.16403079 0.33047482 0.16364922 0.33042145 0.81521487 -0.4436323
110123.2227786 0.85090554 -0.37048507 0.16582887 0.33152688 0.16535218 0.33103767 0.81239492 -0.44550985
110714.75896276 0.84791571 -0.37180057 0.16708282 0.33174258 0.16667804 0.33139977 0.81118923 -0.44459364
111309.47263345 0.84792185 -0.37271014 0.16797428 0.33273366 0.16717544 0.33161265 0.81131214 -0.44710225
111907.3808588 0.84452659 -0.37556162 0.17188703 0.33521855 0.17151994 0.33495709 0.80654502 -0.45146173
112508.50079864 0.84300077 -0.37669101 0.1728034 0.33555591 0.17195651 0.33481643 0.80607492 -0.45093754
113112.84970497 0.84220004 -0.37689593 0.17357665 0.33624426 0.17278939 0.3355653 0.8053143 -0.45284966
113720.44492245 0.84232312 -0.37877065 0.17470159 0.33830053 0.17423207 0.3375752 0.80302578 -0.45660383
114331.30388891 0.84023231 -0.38082126 0.17596135 0.34015372 0.17543615 0.33950087 0.80168158 -0.45868146
114945.44413585 0.83932126 -0.38066378 0.17817087 0.33885819 0.17723231 0.33798128 0.80089921 -0.45667979
115562.88328896 0.83952558 -0.3824361 0.17856959 0.34100807 0.1780246 0.34034386 0.79746324 -0.46074331
116183.63906859 0.83739161 -0.38571128 0.18073681 0.34202385 0.18000677 0.34159598 0.79645234 -0.46174192
116807.72929027 0.83437079 -0.38594484 0.18241353 0.34355628 0.18193039 0.34353191 0.794936 -0.46330184
117435.17186524 0.83323079 -0.38722062 0.18439551 0.34455317 0.18382461 0.34417039 0.79154986 -0.46553788
118065.98480095 0.83217251 -0.38821569 0.18554434 0.34427974 0.18545637 0.34434575 0.78961664 -0.46501237
118700.18620157 0.83214456 -0.39039001 0.18728004 0.34572124 0.18656705 0.34523055 0.78929621 -0.46682712
119337.79426854 0.82713312 -0.39202219 0.19025007 0.34705234 0.19005221 0.34697783 0.78421915 -0.4691349
119978.82730105 0.82705194 -0.39247155 0.19072539 0.34997571 0.18996133 0.34902406 0.78400081 -0.47293073
120623.30369658 0.82595563 -0.3949616 0.19271427 0.34934938 0.19241904 0.34949967 0.7833358 -0.4715986
121271.24195146 0.82390279 -0.3962222 0.1937546 0.35144517 0.19341815 0.3510085 0.78208321 -0.47562328
121922.66066135 0.82498407 -0.39589712 0.19487217 0.35218033 0.19432124 0.35203391 0.77986813 -0.47684097
122577.57852182 0.82057106 -0.39797717 0.19665179 0.35329142 0.1961122 0.35262364 0.7770915 -0.47748026
123236.01432884 0.81998134 -0.39914185 0.19902161 0.35405153 0.19876537 0.35362056 0.77552772 -0.48042461
123897.98697936 0.81763625 -0.40292755 0.20036104 0.35556829 0.19944595 0.35518977 0.77392417 -0.48073995
124563.51547183 0.81683242 -0.40161309 0.20240954 0.3554208 0.20194434 0.3548176 0.77096301 -0.48139149
125232.61890677 0.81531245 -0.40427661 0.20438138 0.35816801 0.20397101 0.35767993 0.76971233 -0.48402664
125905.31648726 0.81666601 -0.40382171 0.20444493 0.35735348 0.20396046 0.35711896 0.76873732 -0.48434842
126581.62751958 0.81153738 -0.40855849 0.20914854 0.35960957 0.20848326 0.35914448 0.76353872 -0.48805097
127261.57141368 0.80912912 -0.40814978 0.20989348 0.35989174 0.20908275 0.35990196 0.76203281 -0.48782617
127945.16768379 0.81030959 -0.41138926 0.20964578 0.36246836 0.20854619 0.36203822 0.76372546 -0.49178076
128632.43594895 0.80614835 -0.40890044 0.21188736 0.36069238 0.21207984 0.36108887 0.75932294 -0.49162272
129323.39593359 0.80686235 -0.41260481 0.21327555 0.3638666 0.21326756 0.36428645 0.75880402 -0.49616596
130018.0674681 0.80374575 -0.41429263 0.21545351 0.36394161 0.2155668 0.36382672 0.75713867 -0.49650142
130716.47048938 0.80261403 -0.41432804 0.21747085 0.36574587 0.21737123 0.3662954 0.75462937 -0.49836394
131418.62504142 0.80211586 -0.41654411 0.21912138 0.36666155 0.21899088 0.36645645 0.75221187 -0.49832553
132124.55127589 0.79944897 -0.41647118 0.22125366 0.36716363 0.22146997 0.36743101 0.74920785 -0.50054663
132834.2694527 0.7952131 -0.41740191 0.22313355 0.36780715 0.22279823 0.36764017 0.74684644 -0.5008015
133547.79994059 0.79564995 -0.41841966 0.22453281 0.36868221 0.22478026 0.36853293 0.74596012 -0.50211096
134265.1632177 0.79483664 -0.42152265 0.22672427 0.3701244 0.22670393 0.36971641 0.74307013 -0.50359392
134986.3798722 0.79339892 -0.42287385 0.22846344 0.37076503 0.22811186 0.37071177 0.74154794 -0.50648195
135711.47060282 0.79224086 -0.42232689 0.22920187 0.37098262 0.22885856 0.37113646 0.74048591 -0.50636172
136440.45621948 0.78805369 -0.4255625 0.23187676 0.37249699 0.23123191 0.37226453 0.73841506 -0.50945032
137173.35764391 0.78873259 -0.42612407 0.23296142 0.37367719 0.23259033 0.37383446 0.73732251 -0.51117057
137910.19591018 0.78610706 -0.42939296 0.23548257 0.37500864 0.23420252 0.37489507 0.73410577 -0.51194501
138650.99216538 0.78382534 -0.42990133 0.23779687 0.37532544 0.23674306 0.3749724 0.73079377 -0.51490819
139395.76767017 0.78193164 -0.43146238 0.23994371 0.37686208 0.23893689 0.37677538 0.72930551 -0.51681197
140144.54379944 0.77956158 -0.43155989 0.24145301 0.37789583 0.24105094 0.37784439 0.72738236 -0.51779681
140897.34204288 0.77829158 -0.43286514 0.24429983 0.37850273 0.24332017 0.37786812 0.72263163 -0.51904428
141654.18400561 0.7764312 -0.4334808 0.24639824 0.37882802 0.24551962 0.37803307 0.72173566 -0.51902276
142415.09140881 0.7737754 -0.43664986 0.24665025 0.37997648 0.24618496 0.38023955 0.72169703 -0.52132362
143180.08609033 0.77387547 -0.43745309 0.2490572 0.38155282 0.248061 0.38136327 0.71938902 -0.52321571
143949.19000534 0.77206504 -0.43916926 0.25160378 0.38241956 0.25068179 0.38198391 0.7155956 -0.52637327
144722.42522694 0.76841414 -0.43917185 0.25325873 0.38225678 0.25233302 0.38265336 0.71456051 -0.52567911
145499.81394678 0.76626986 -0.44019035 0.25552705 0.38334647 0.2547538 0.38245007 0.71097761 -0.52751923
146281.37847573 0.76564097 -0.44261009 0.25690055 0.38364863 0.25624338 0.38344681 0.70876157 -0.52826279
147067.1412445 0.76349741 -0.44338563 0.25970846 0.3852824 0.25852469 0.38475007 0.70620728 -0.52969843
147857.12480429 0.76158434 -0.44552836 0.26164469 0.38597995 0.26085377 0.38561794 0.70403421 -0.53286982
148651.35182744 0.7600016 -0.44561923 0.26374471 0.38674414 0.26250914 0.38629124 0.70325482 -0.53248698
149449.84510806 0.75738543 -0.44784287 0.26590773 0.38750115 0.26504755 0.38679868 0.7001493 -0.53500766
150252.62756273 0.75771505 -0.44776827 0.26800251 0.38838738 0.26669016 0.38804144 0.69699317 -0.53783172
151059.72223109 0.7536363 -0.44957614 0.27001151 0.38869676 0.26875916 0.38816318 0.69452041 -0.53782606
151871.15227658 0.75250286 -0.45132846 0.27218601 0.39013293 0.27106518 0.39003214 0.69278497 -0.53831238
152686.94098702 0.75096905 -0.45225966 0.27396679 0.39042103 0.27363628 0.39003584 0.6885426 -0.54127711
153507.11177537 0.7488755 -0.45329526 0.27594519 0.39153519 0.27601182 0.39143604 0.68770039 -0.54301196
154331.68818032 0.74709827 -0.45470417 0.27760932 0.39198825 0.27732852 0.39190677 0.68532127 -0.54352707
155160.69386701 0.74537355 -0.45605388 0.27947274 0.39245716 0.2796264 0.39263174 0.68106604 -0.54418916
155994.15262771 0.7433117 -0.45663586 0.28165212 0.39395663 0.28202641 0.39424506 0.68035418 -0.54641891
156832.08838247 0.74176633 -0.45643607 0.28342381 0.39448842 0.28400752 0.39409497 0.67803049 -0.54615635
157674.52517985 0.7386235 -0.45882449 0.28618148 0.39430603 0.28635621 0.39454269 0.67502964 -0.54791617
158521.48719758 0.73709816 -0.45905495 0.28815451 0.39493942 0.28834379 0.39517871 0.67188525 -0.55121195
159372.99874326 0.7369895 -0.46144813 0.29092208 0.39655566 0.29039058 0.39688039 0.66823035 -0.55209976
160229.08425507 0.73460269 -0.46263358 0.29269004 0.39643303 0.29199228 0.3963486 0.66770768 -0.55168658
161089.76830244 0.73190296 -0.46329269 0.29431599 0.39759222 0.29409355 0.3975687 0.66608822 -0.55295032
161955.0755868 0.73172969 -0.46538815 0.29620355 0.39808419 0.29578206 0.39797306 0.66193962 -0.55470353
162825.03094227 0.72636837 -0.46670482 0.29926485 0.3986316 0.29929686 0.39855385 0.66007018 -0.55718201
163699.65933634 0.72616577 -0.46538204 0.30043298 0.39890024 0.3002902 0.39911851 0.65918571 -0.5582754
164578.98587063 0.72324598 -0.4674367 0.30251271 0.40045682 0.30210483 0.40079778 0.65716761 -0.55855608
165463.03578161 0.72269452 -0.46943444 0.30520019 0.40087143 0.30499947 0.40078086 0.65127438 -0.56099743
166351.83444129 0.71887422 -0.46992233 0.3080622 0.40192056 0.30776009 0.40160757 0.64949358 -0.56246799
167245.40735797 0.71784252 -0.47195369 0.3106809 0.40164977 0.31017259 0.40185693 0.64719093 -0.56175601
168143.78017698 0.71602118 -0.47347417 0.31202197 0.40348807 0.3113305 0.40294954 0.64602762 -0.56438094
169046.97868139 0.71239603 -0.47356093 0.31508029 0.4033705 0.31434652 0.4028587 0.64277273 -0.56672764
169955.0287928 0.71183068 -0.47512862 0.31691474 0.40388548 0.31584865 0.40315771 0.63968831 -0.56551826
170867.956572 0.70847249 -0.47664034 0.31914392 0.4045507 0.3177962 0.4039754 0.63765156 -0.56811512
171785.78821981 0.70688272 -0.47677499 0.32118714 0.40449286 0.32020178 0.40391532 0.63525093 -0.56785691
172708.55007777 0.70368886 -0.47885567 0.32388431 0.40564853 0.32279229 0.4054431 0.63395399 -0.57008368
173636.26862892 0.70272887 -0.48002762 0.32592821 0.40641958 0.32482588 0.40561676 0.63023996 -0.57214546
174568.97049855 0.70068121 -0.48097026 0.32903785 0.40719226 0.32763901 0.4063774 0.62780774 -0.57313418
175506.68245498 0.6986261 -0.48312661 0.33124006 0.40670207 0.33019277 0.40562737 0.62328935 -0.57454038
176449.43141032 0.69643927 -0.48519698 0.33314377 0.40858403 0.33210295 0.40814593 0.62060189 -0.577685
177397.24442123 0.69292396 -0.48343515 0.33525094 0.40838283 0.33425236 0.40815601 0.61921352 -0.57649672
178350.14868971 0.69208437 -0.48494747 0.33759478 0.40968406 0.33686426 0.40890554 0.61735064 -0.57833868
179308.17156388 0.68896013 -0.48686606 0.34079373 0.40953603 0.33987376 0.40922707 0.61171877 -0.57972699
180271.34053877 0.68589091 -0.48867348 0.34277436 0.40859541 0.34181589 0.40862194 0.60925221 -0.57923073
181239.68325708 0.68589449 -0.48843029 0.34506229 0.40981933 0.34444076 0.40961707 0.60655093 -0.58077937
182213.22751002 0.68286985 -0.49015576 0.34737346 0.41101399 0.34654155 0.41090912 0.60461068 -0.5818935
183192.00123807 0.67866594 -0.49028876 0.34911388 0.41061738 0.34878182 0.4107267 0.60148168 -0.58348906
184176.0325318 0.67796767 -0.49162358 0.35219669 0.41125551 0.35224766 0.41097847 0.59915423 -0.58491635
185165.34963266 0.67646432 -0.49287096 0.35396954 0.41138089 0.35364044 0.41152292 0.59703428 -0.58552998
186159.98093381 0.67556918 -0.49276537 0.35561067 0.4124538 0.35505083 0.41248867 0.59421855 -0.5872165
187159.95498093 0.67305088 -0.49386287 0.35823879 0.41304088 0.35869393 0.41254506 0.59097975 -0.58879602
188165.30047303 0.67048645 -0.49584952 0.36013231 0.41267931 0.36013004 0.41249508 0.58978802 -0.58784175
189176.04626328 0.66788787 -0.49673784 0.36287147 0.41349891 0.3625662 0.41345519 0.58717442 -0.59012467
190192.22135984 0.66654158 -0.49652874 0.3656041 0.41302854 0.36537334 0.41299477 0.58300024 -0.59024382
191213.85492668 0.66357332 -0.49915758 0.36758104 0.41333878 0.36755794 0.4132905 0.58114731 -0.591582
192240.97628443 0.66169113 -0.49793512 0.36986271 0.41330054 0.36964551 0.412662 0.57654625 -0.59300709
193273.61491124 0.66047788 -0.50033915 0.37276968 0.41333726 0.3722083 0.41345155 0.57305741 -0.59309924
194311.80044357 0.6568076 -0.50008035 0.37539473 0.41425735 0.37455219 0.41441038 0.57260889 -0.59412628
195355.5626771 0.65513206 -0.50288039 0.37818596 0.41482267 0.37756565 0.41486526 0.56878895 -0.59487051
196404.93156754 0.65257901 -0.50146562 0.38049117 0.41518128 0.37957066 0.41492823 0.56599134 -0.59804636
197459.93723154 0.64881307 -0.50324631 0.38271394 0.41377363 0.38231784 0.41361246 0.5636397 -0.5976572
198520.60994748 0.64675838 -0.50391918 0.38517174 0.41508207 0.3838788 0.41447458 0.56177706 -0.5983032
199586.98015643 0.64485657 -0.50616252 0.38792214 0.415566 0.38722163 0.41552651 0.55887288 -0.59982508
200659.07846295 0.6410858 -0.50742716 0.39001143 0.41622704 0.38896909 0.41652009 0.55576599 -0.59951741
201736.93563598 0.63932246 -0.50738919 0.39359379 0.41630289 0.39239669 0.4157621 0.55200928 -0.60170555
202820.58260979 0.63750392 -0.50992095 0.39611387 0.41623208 0.39433303 0.41566774 0.5495249 -0.60266584
203910.05048475 0.63629967 -0.51147938 0.39874768 0.41589725 0.39728579 0.41597036 0.54667723 -0.60209048
205005.37052835 0.6332196 -0.50928092 0.40042016 0.41606647 0.39944813 0.41569594 0.54286367 -0.60463041
206106.57417599 0.63003927 -0.50942987 0.40309119 0.41665238 0.40154776 0.41623551 0.54048759 -0.60518366
207213.69303195 0.62867916 -0.51172829 0.40560284 0.41591826 0.40521702 0.41613922 0.53677404 -0.60513538
208326.75887027 0.62657183 -0.5118227 0.40771046 0.41680875 0.40700126 0.41660386 0.53288603 -0.60655659
209445.80363567 0.62331843 -0.51153713 0.40944967 0.41640979 0.40912318 0.41655177 0.53148007 -0.607683
210570.85944446 0.62363869 -0.51397181 0.41311139 0.41660804 0.41227543 0.41661751 0.52894092 -0.60893154
211701.95858547 0.61794865 -0.51427603 0.4153147 0.41594383 0.41508543 0.41594642 0.52538866 -0.60872662
212839.13352097 0.61865109 -0.5158028 0.41761795 0.41696435 0.41694224 0.41672161 0.52203429 -0.6098364
213982.41688759 0.61344254 -0.51652002 0.4203167 0.41631573 0.42083204 0.41595513 0.52056688 -0.61059594
215131.8414973 0.61202699 -0.5162825 0.42225352 0.41685 0.42200464 0.41656575 0.51597476 -0.61294341
216287.44033829 0.61043215 -0.51668352 0.42377281 0.41641679 0.42357832 0.41636059 0.51340199 -0.61060232
217449.24657598 0.60763776 -0.51608688 0.42734882 0.4157584 0.42716086 0.41582954 0.5111379 -0.61392534
218617.29355391 0.6063754 -0.51981711 0.42982799 0.4170672 0.42956683 0.41650426 0.50861979 -0.61365598
219791.61479476 0.60359544 -0.51981866 0.43243507 0.41601944 0.43275937 0.41596156 0.50496453 -0.61426145
220972.24400124 0.60097885 -0.52177787 0.43559813 0.41641262 0.43452871 0.416839 0.50253636 -0.61438137
222159.21505714 0.60018218 -0.52015322 0.43738151 0.41556355 0.43694821 0.41548976 0.49907869 -0.61439884
223352.56202824 0.5954389 -0.52027649 0.43952361 0.41621518 0.43921849 0.4162817 0.49726269 -0.6168139
224552.31916329 0.59268224 -0.52218395 0.443248 0.41509634 0.4426164 0.41568547 0.4940322 -0.61725754
225758.52089503 0.59151161 -0.52279139 0.44560269 0.416684 0.44445282 0.41685915 0.49188262 -0.61906946
226971.20184117 0.58800101 -0.52317125 0.44842479 0.4150809 0.44740543 0.41467795 0.48795682 -0.61837471
228190.39680534 0.58559161 -0.52370083 0.45087489 0.41572037 0.44960716 0.41519603 0.48411712 -0.6179685
229416.14077815 0.58453083 -0.52588618 0.45364681 0.4155502 0.45226449 0.41511422 0.48171946 -0.6206255
230648.46893815 0.58020025 -0.52567005 0.45598888 0.41516861 0.45532319 0.4155046 0.47829017 -0.61982465
231887.41665285 0.57910705 -0.52533597 0.4585489 0.41556031 0.45764399 0.41567901 0.47746 -0.62175584
233133.01947975 0.5752911 -0.52544743 0.46123886 0.41470191 0.4601368 0.41444886 0.47295502 -0.62008578
234385.31316734 0.57195407 -0.5265283 0.46376073 0.41451916 0.46316931 0.41407058 0.46931568 -0.62258482
235644.33365616 0.57215798 -0.52696097 0.46571201 0.41353482 0.46509561 0.41356725 0.46574292 -0.62066221
236910.11707978 0.57004309 -0.52767736 0.46812716 0.41330597 0.46686161 0.41347808 0.46474203 -0.62172014
238182.69976588 0.56610715 -0.52898932 0.47110081 0.41318497 0.47059247 0.41350579 0.46177709 -0.62304837
239462.11823726 0.56485242 -0.52886969 0.47382078 0.41262338 0.47291279 0.41264758 0.45754063 -0.62329638
240748.40921293 0.56191003 -0.53062463 0.47661904 0.41239658 0.47601551 0.41248199 0.45387456 -0.62307233
242041.60960912 0.56118834 -0.53184903 0.47842997 0.41294494 0.47725686 0.41294959 0.45173082 -0.62323439
243341.75654037 0.55750716 -0.53061861 0.48014387 0.41211575 0.47985303 0.41218269 0.4486405 -0.62455034
244648.88732058 0.55537325 -0.53061175 0.483491 0.41156331 0.48311278 0.41150856 0.44479743 -0.62569726
245963.03946408 0.5524286 -0.53383744 0.48694518 0.41173252 0.48644388 0.41162121 0.44313478 -0.62722802
247284.25068671 0.55228329 -0.53324002 0.48842633 0.41128838 0.48846093 0.41173324 0.44068804 -0.62637395
248612.55890692 0.54722363 -0.5341047 0.49159485 0.41040328 0.49080509 0.41106239 0.43766487 -0.62579286
249948.00224683 0.54563874 -0.53295732 0.49337393 0.41021726 0.49245474 0.41059595 0.43401542 -0.62716872
251290.61903333 0.54254162 -0.53605425 0.4972865 0.40942812 0.49635768 0.40943381 0.43079168 -0.62777245
252640.4477992 0.54121816 -0.53549653 0.49869391 0.40887988 0.49800706 0.40898147 0.4283303 -0.62830585
253997.5272842 0.53749061 -0.53507984 0.50096536 0.4081077 0.49989781 0.40812403 0.42530012 -0.62766832
255361.89643616 0.53561193 -0.53532559 0.50458163 0.40772232 0.50318557 0.40770116 0.42142367 -0.62775928
256733.59441217 0.53220153 -0.53516233 0.50602537 0.40748328 0.50548941 0.40784639 0.41977286 -0.62880743
258112.6605796 0.53095281 -0.53678674 0.50967669 0.40687704 0.50867432 0.40730765 0.41592193 -0.62920737
259499.13451733 0.5272392 -0.53686285 0.51239049 0.40597263 0.51137149 0.40570724 0.41197735 -0.62911475
260893.05601682 0.52512777 -0.53632635 0.51504886 0.40570354 0.51365829 0.40573102 0.40909874 -0.62959737
262294.46508327 0.52229393 -0.53719133 0.51735497 0.40537852 0.5172708 0.40494239 0.40576527 -0.63175827
263703.40193678 0.5195089 -0.53777659 0.51976806 0.40422305 0.51865858 0.40454388 0.40459514 -0.63012207
265119.9070135 0.51687294 -0.53846097 0.52249002 0.40346426 0.52217805 0.40407383 0.40031078 -0.6313504
266544.02096677 0.51551014 -0.53713161 0.52418816 0.40320277 0.52392215 0.40300283 0.3977569 -0.63017607
267975.78466832 0.51318467 -0.53823298 0.52732217 0.40208641 0.52684623 0.40179724 0.39357412 -0.63094807
269415.23920942 0.50927979 -0.53959185 0.52993661 0.40062687 0.52998489 0.40102604 0.39223674 -0.6306591
270862.42590205 0.51019096 -0.53972542 0.53176183 0.4012332 0.53107959 0.40115541 0.38942632 -0.63112742
